HEADER
"PSFversion" "1.00"
"simulator" "spectre"
"version" "23.1.0.242.isr1"
"date" "2:57:56 PM, Fri Nov 29, 2024"
"design" "# Simulate DC sweeps of gate to source voltage"
"analysis type" "dc"
"analysis name" "vgs-005_vds"
"analysis description" "DC Analysis `vgs-005_vds': vds = (0 -> 1.2)"
"xVecSorted" "unsorted"
"tolerance.relative" 1.000000000000000e-03
"reltol" 1.000000000000000e-03
"abstol(V)" 1.000000000000000e-06
"abstol(I)" 1.000000000000000e-12
"temp" 2.700000000000000e+01
"tnom" 2.700000000000000e+01
"tempeffects" "all"
"gmindc" 1.000000000000000e-12
TYPE
"sweep" FLOAT DOUBLE PROP(
"key" "sweep"
)
"LogicV" FLOAT DOUBLE PROP(
"key" "node"
)
"Real" FLOAT DOUBLE PROP(
"units" ""
"key" "node"
"tolerance" 1.000000000000000e-06
)
"Tau" FLOAT DOUBLE PROP(
"units" "N*m"
"key" "node"
"tolerance" 1.000000000000000e-06
)
"Alpha" FLOAT DOUBLE PROP(
"units" "rads/s^2"
"key" "node"
"tolerance" 1.000000000000000e-06
)
"Omega" FLOAT DOUBLE PROP(
"units" "rads/s"
"key" "node"
"tolerance" 1.000000000000000e-06
)
"Theta" FLOAT DOUBLE PROP(
"units" "rads"
"key" "node"
"tolerance" 1.000000000000000e-06
)
"F" FLOAT DOUBLE PROP(
"units" "N"
"key" "node"
"tolerance" 1.000000000000000e-06
)
"Imp" FLOAT DOUBLE PROP(
"units" "m/s^3"
"key" "node"
"tolerance" 1.000000000000000e-06
)
"Acc" FLOAT DOUBLE PROP(
"units" "m/s^2"
"key" "node"
"tolerance" 1.000000000000000e-06
)
"Vel" FLOAT DOUBLE PROP(
"units" "m/s"
"key" "node"
"tolerance" 1.000000000000000e-06
)
"Pos" FLOAT DOUBLE PROP(
"units" "m"
"key" "node"
"tolerance" 1.000000000000000e-06
)
"Phi" FLOAT DOUBLE PROP(
"units" "Wb"
"key" "node"
"tolerance" 1.000000000000000e-09
)
"V" FLOAT DOUBLE PROP(
"units" "V"
"key" "node"
"tolerance" 1.000000000000000e-06
)
"I" FLOAT DOUBLE PROP(
"units" "A"
"key" "branch"
"tolerance" 1.000000000000000e-12
)
"MMF" FLOAT DOUBLE PROP(
"units" "A*turn"
"key" "node"
"tolerance" 1.000000000000000e-12
)
"Wb" FLOAT DOUBLE PROP(
"units" "Wb"
"key" "node"
"tolerance" 1.000000000000000e-09
)
"Temp" FLOAT DOUBLE PROP(
"units" "C"
"key" "node"
"tolerance" 1.000000000000000e-04
)
"Pwr" FLOAT DOUBLE PROP(
"units" "W"
"key" "node"
"tolerance" 1.000000000000000e-09
)
"U" FLOAT DOUBLE PROP(
"units" ""
"key" "node"
"tolerance" 1.000000000000000e-06
)
"V/Sec" FLOAT DOUBLE PROP(
"units" "V/s"
"key" "node"
"tolerance" 9.999999999999999e-05
)
"I/Sec" FLOAT DOUBLE PROP(
"units" "A/s"
"key" "node"
"tolerance" 1.000000000000000e-06
)
"1/Sec" FLOAT DOUBLE PROP(
"units" "1/s"
"key" "node"
"tolerance" 9.999999999999999e-05
)
"HOD" FLOAT DOUBLE PROP(
"units" ""
"key" "node"
"tolerance" 1.000000000000000e-02
)
"Q" FLOAT DOUBLE PROP(
"units" "coul"
"key" "node"
"tolerance" 1.000000000000000e-14
)
"A" FLOAT DOUBLE PROP(
"key" "inst"
)
SWEEP
"vds" "sweep" PROP(
"sweep_direction" 0
"plot" 0
"grid" 1
)
TRACE
"M1:ids" "A"
"D" "V"
"S" "V"
"G" "V"
"B" "V"
"M1.n1" "V"
"Vb:p" "I"
"Vd:p" "I"
"Vg:p" "I"
"Vs:p" "I"
VALUE
"vds" 0.000000000000000e+00
"M1:ids" 0.000000000000000e+00
"D" 0.000000000000000e+00
"S" 0.000000000000000e+00
"G" 1.000000000000000e+00
"B" 0.000000000000000e+00
"M1.n1" 9.999999950029447e-01
"Vb:p" 6.452474943947732e-15
"Vd:p" 4.890733589124062e-10
"Vg:p" -9.781531702997562e-10
"Vs:p" 9.472695971340464e-26
"vds" 1.000000000000000e-02
"M1:ids" 1.953145150544782e-06
"D" 1.000000000000000e-02
"S" 0.000000000000000e+00
"G" 1.000000000000000e+00
"B" 0.000000000000000e+00
"M1.n1" 9.999999950460874e-01
"Vb:p" 1.649735457881012e-14
"Vd:p" -1.952661946973692e-06
"Vg:p" -9.697081639791410e-10
"Vs:p" 3.772890862838890e-22
"vds" 2.000000000000000e-02
"M1:ids" 3.877274353428986e-06
"D" 2.000000000000000e-02
"S" 0.000000000000000e+00
"G" 1.000000000000000e+00
"B" 0.000000000000000e+00
"M1.n1" 9.999999951090092e-01
"Vb:p" 2.654111687538225e-14
"Vd:p" -3.876799576158188e-06
"Vg:p" -9.573914842355313e-10
"Vs:p" 2.532119944009399e-22
"vds" 3.000000000000000e-02
"M1:ids" 5.772260867552451e-06
"D" 3.000000000000000e-02
"S" 0.000000000000000e+00
"G" 1.000000000000000e+00
"B" 0.000000000000000e+00
"M1.n1" 9.999999951680203e-01
"Vb:p" 3.658382536861373e-14
"Vd:p" -5.771793983489019e-06
"Vg:p" -9.458403003836811e-10
"Vs:p" 5.112923455174795e-22
"vds" 4.000000000000000e-02
"M1:ids" 7.637981309841896e-06
"D" 4.000000000000000e-02
"S" 0.000000000000000e+00
"G" 1.000000000000000e+00
"B" 0.000000000000000e+00
"M1.n1" 9.999999952249712e-01
"Vb:p" 4.662552157146571e-14
"Vd:p" -7.637522028188638e-06
"Vg:p" -9.346923853888826e-10
"Vs:p" 1.518798331607072e-21
"vds" 5.000000000000000e-02
"M1:ids" 9.474315885511844e-06
"D" 5.000000000000000e-02
"S" 0.000000000000000e+00
"G" 1.000000000000000e+00
"B" 0.000000000000000e+00
"M1.n1" 9.999999952805663e-01
"Vb:p" 5.666623255681272e-14
"Vd:p" -9.473864007961658e-06
"Vg:p" -9.238098753286890e-10
"Vs:p" 1.614751282663218e-21
"vds" 6.000000000000000e-02
"M1:ids" 1.128114860340166e-05
"D" 6.000000000000000e-02
"S" 0.000000000000000e+00
"G" 1.000000000000000e+00
"B" 0.000000000000000e+00
"M1.n1" 9.999999953350860e-01
"Vb:p" 6.670597609629222e-14
"Vd:p" -1.128070396878547e-05
"Vg:p" -9.131378793849566e-10
"Vs:p" 9.770203924095100e-23
"vds" 7.000000000000001e-02
"M1:ids" 1.305836747599915e-05
"D" 7.000000000000001e-02
"S" 0.000000000000000e+00
"G" 1.000000000000000e+00
"B" 0.000000000000000e+00
"M1.n1" 9.999999953886636e-01
"Vb:p" 7.674476413811260e-14
"Vd:p" -1.305792994109220e-05
"Vg:p" -9.026502806127019e-10
"Vs:p" 1.070466439603268e-21
"vds" 8.000000000000000e-02
"M1:ids" 1.480586470368631e-05
"D" 8.000000000000000e-02
"S" 0.000000000000000e+00
"G" 1.000000000000000e+00
"B" 0.000000000000000e+00
"M1.n1" 9.999999954413725e-01
"Vb:p" 8.678260515455193e-14
"Vd:p" -1.480543413537312e-05
"Vg:p" -8.923327046289817e-10
"Vs:p" 1.969637127473149e-22
"vds" 9.000000000000000e-02
"M1:ids" 1.652353684291930e-05
"D" 9.000000000000000e-02
"S" 0.000000000000000e+00
"G" 1.000000000000000e+00
"B" 0.000000000000000e+00
"M1.n1" 9.999999954932585e-01
"Vb:p" 9.681950571989513e-14
"Vd:p" -1.652311311453810e-05
"Vg:p" -8.821762535811838e-10
"Vs:p" 3.945746248837770e-21
"vds" 9.999999999999999e-02
"M1:ids" 1.821128495823505e-05
"D" 9.999999999999999e-02
"S" 0.000000000000000e+00
"G" 1.000000000000000e+00
"B" 0.000000000000000e+00
"M1.n1" 9.999999955443523e-01
"Vb:p" 1.068554715640819e-13
"Vd:p" -1.821086794768479e-05
"Vg:p" -8.721748620016620e-10
"Vs:p" -5.421247007712849e-21
"vds" 1.100000000000000e-01
"M1:ids" 1.986901475815289e-05
"D" 1.100000000000000e-01
"S" 0.000000000000000e+00
"G" 1.000000000000000e+00
"B" 0.000000000000000e+00
"M1.n1" 9.999999955946767e-01
"Vb:p" 1.168905082688844e-13
"Vd:p" -1.986860434682887e-05
"Vg:p" -8.623240546313768e-10
"Vs:p" 3.954870597596404e-22
"vds" 1.200000000000000e-01
"M1:ids" 2.149663671521878e-05
"D" 1.200000000000000e-01
"S" 0.000000000000000e+00
"G" 1.000000000000000e+00
"B" 0.000000000000000e+00
"M1.n1" 9.999999956442498e-01
"Vb:p" 1.269246217201429e-13
"Vd:p" -2.149623278737144e-05
"Vg:p" -8.526203113988739e-10
"Vs:p" 7.395941945821009e-22
"vds" 1.300000000000000e-01
"M1:ids" 2.309406617061577e-05
"D" 1.300000000000000e-01
"S" 0.000000000000000e+00
"G" 1.000000000000000e+00
"B" 0.000000000000000e+00
"M1.n1" 9.999999956930866e-01
"Vb:p" 1.369578183933700e-13
"Vd:p" -2.309366861294108e-05
"Vg:p" -8.430607200035252e-10
"Vs:p" -2.536041031128290e-21
"vds" 1.400000000000000e-01
"M1:ids" 2.466122342394148e-05
"D" 1.400000000000000e-01
"S" 0.000000000000000e+00
"G" 1.000000000000000e+00
"B" 0.000000000000000e+00
"M1.n1" 9.999999957411997e-01
"Vb:p" 1.469901055254382e-13
"Vd:p" -2.466083212530537e-05
"Vg:p" -8.336427750266067e-10
"Vs:p" 4.078095146844504e-21
"vds" 1.500000000000000e-01
"M1:ids" 2.619803380892789e-05
"D" 1.500000000000000e-01
"S" 0.000000000000000e+00
"G" 1.000000000000000e+00
"B" 0.000000000000000e+00
"M1.n1" 9.999999957886005e-01
"Vb:p" 1.570214912083429e-13
"Vd:p" -2.619764866017131e-05
"Vg:p" -8.243642563410592e-10
"Vs:p" 5.719221482146063e-21
"vds" 1.600000000000000e-01
"M1:ids" 2.770442775605428e-05
"D" 1.600000000000000e-01
"S" 0.000000000000000e+00
"G" 1.000000000000000e+00
"B" 0.000000000000000e+00
"M1.n1" 9.999999958352993e-01
"Vb:p" 1.670519844296664e-13
"Vd:p" -2.770404864984955e-05
"Vg:p" -8.152231526876607e-10
"Vs:p" 3.942437526385807e-21
"vds" 1.700000000000000e-01
"M1:ids" 2.918034084318220e-05
"D" 1.700000000000000e-01
"S" 0.000000000000000e+00
"G" 1.000000000000000e+00
"B" 0.000000000000000e+00
"M1.n1" 9.999999958813056e-01
"Vb:p" 1.770815950766418e-13
"Vd:p" -2.917996767392214e-05
"Vg:p" -8.062176121414535e-10
"Vs:p" -1.291961389838810e-21
"vds" 1.800000000000000e-01
"M1:ids" 3.062571383552097e-05
"D" 1.800000000000000e-01
"S" 0.000000000000000e+00
"G" 1.000000000000000e+00
"B" 0.000000000000000e+00
"M1.n1" 9.999999959266281e-01
"Vb:p" 1.871103339154526e-13
"Vd:p" -3.062534649923008e-05
"Vg:p" -7.973459092300800e-10
"Vs:p" 1.014960084302749e-20
"vds" 1.900000000000000e-01
"M1:ids" 3.204049271641923e-05
"D" 1.900000000000000e-01
"S" 0.000000000000000e+00
"G" 1.000000000000000e+00
"B" 0.000000000000000e+00
"M1.n1" 9.999999959712752e-01
"Vb:p" 1.971382125538211e-13
"Vd:p" -3.204013111067959e-05
"Vg:p" -7.886064227427182e-10
"Vs:p" -4.184586629828129e-22
"vds" 2.000000000000000e-01
"M1:ids" 3.342462871067698e-05
"D" 2.000000000000000e-01
"S" 0.000000000000000e+00
"G" 1.000000000000000e+00
"B" 0.000000000000000e+00
"M1.n1" 9.999999960152547e-01
"Vb:p" 2.071652433924907e-13
"Vd:p" -3.342427273456433e-05
"Vg:p" -7.799976206424648e-10
"Vs:p" 2.000217448155065e-21
"vds" 2.100000000000000e-01
"M1:ids" 3.477807830228309e-05
"D" 2.100000000000000e-01
"S" 0.000000000000000e+00
"G" 1.000000000000000e+00
"B" 0.000000000000000e+00
"M1.n1" 9.999999960585740e-01
"Vb:p" 2.171914395695368e-13
"Vd:p" -3.477772785630946e-05
"Vg:p" -7.715180498622631e-10
"Vs:p" -3.138228516925868e-21
"vds" 2.200000000000001e-01
"M1:ids" 3.610080324871859e-05
"D" 2.200000000000001e-01
"S" 0.000000000000000e+00
"G" 1.000000000000000e+00
"B" 0.000000000000000e+00
"M1.n1" 9.999999961012401e-01
"Vb:p" 2.272168149002853e-13
"Vd:p" -3.610045823478049e-05
"Vg:p" -7.631663295794630e-10
"Vs:p" 8.723541466986074e-21
"vds" 2.300000000000001e-01
"M1:ids" 3.739277059422912e-05
"D" 2.300000000000001e-01
"S" 0.000000000000000e+00
"G" 1.000000000000000e+00
"B" 0.000000000000000e+00
"M1.n1" 9.999999961432599e-01
"Vb:p" 2.372413838148343e-13
"Vd:p" -3.739243091555734e-05
"Vg:p" -7.549411470643514e-10
"Vs:p" -4.828985688984256e-21
"vds" 2.400000000000001e-01
"M1:ids" 3.865395268476937e-05
"D" 2.400000000000001e-01
"S" 0.000000000000000e+00
"G" 1.000000000000000e+00
"B" 0.000000000000000e+00
"M1.n1" 9.999999961846394e-01
"Vb:p" 2.472651612946121e-13
"Vd:p" -3.865361824588155e-05
"Vg:p" -7.468412555146846e-10
"Vs:p" 8.058488254887341e-21
"vds" 2.500000000000001e-01
"M1:ids" 3.988432718767527e-05
"D" 2.500000000000001e-01
"S" 0.000000000000000e+00
"G" 1.000000000000000e+00
"B" 0.000000000000000e+00
"M1.n1" 9.999999962253850e-01
"Vb:p" 2.572881628090288e-13
"Vd:p" -3.988399789432855e-05
"Vg:p" -7.388654734941931e-10
"Vs:p" 8.640823405829283e-21
"vds" 2.600000000000001e-01
"M1:ids" 4.108387711953548e-05
"D" 2.600000000000001e-01
"S" 0.000000000000000e+00
"G" 1.000000000000000e+00
"B" 0.000000000000000e+00
"M1.n1" 9.999999962655023e-01
"Vb:p" 2.673104042529961e-13
"Vd:p" -4.108355287867921e-05
"Vg:p" -7.310126857318073e-10
"Vs:p" 6.609267821694435e-21
"vds" 2.700000000000001e-01
"M1:ids" 4.225259088622978e-05
"D" 2.700000000000001e-01
"S" 0.000000000000000e+00
"G" 1.000000000000000e+00
"B" 0.000000000000000e+00
"M1.n1" 9.999999963049966e-01
"Vb:p" 2.773319018858963e-13
"Vd:p" -4.225227160595713e-05
"Vg:p" -7.232818451342210e-10
"Vs:p" 1.881103441227492e-21
"vds" 2.800000000000001e-01
"M1:ids" 4.339046233970501e-05
"D" 2.800000000000001e-01
"S" 0.000000000000000e+00
"G" 1.000000000000000e+00
"B" 0.000000000000000e+00
"M1.n1" 9.999999963438728e-01
"Vb:p" 2.873526722724360e-13
"Vd:p" -4.339014792920317e-05
"Vg:p" -7.156719759342862e-10
"Vs:p" 4.845718759276037e-21
"vds" 2.900000000000001e-01
"M1:ids" 4.449749085679147e-05
"D" 2.900000000000001e-01
"S" 0.000000000000000e+00
"G" 1.000000000000000e+00
"B" 0.000000000000000e+00
"M1.n1" 9.999999963821357e-01
"Vb:p" 2.973727322257090e-13
"Vd:p" -4.449718122628920e-05
"Vg:p" -7.081821779503153e-10
"Vs:p" 9.649983754325528e-21
"vds" 3.000000000000001e-01
"M1:ids" 4.557368144625723e-05
"D" 3.000000000000001e-01
"S" 0.000000000000000e+00
"G" 1.000000000000000e+00
"B" 0.000000000000000e+00
"M1.n1" 9.999999964197893e-01
"Vb:p" 3.073920987527108e-13
"Vd:p" -4.557337650696997e-05
"Vg:p" -7.008116319736336e-10
"Vs:p" 6.771395225299486e-21
"vds" 3.100000000000001e-01
"M1:ids" 4.661904489140007e-05
"D" 3.100000000000001e-01
"S" 0.000000000000000e+00
"G" 1.000000000000000e+00
"B" 0.000000000000000e+00
"M1.n1" 9.999999964568375e-01
"Vb:p" 3.174107890024820e-13
"Vd:p" -4.661874455547126e-05
"Vg:p" -6.935596063372940e-10
"Vs:p" 2.598294512575322e-22
"vds" 3.200000000000001e-01
"M1:ids" 4.763359793683244e-05
"D" 3.200000000000001e-01
"S" 0.000000000000000e+00
"G" 1.000000000000000e+00
"B" 0.000000000000000e+00
"M1.n1" 9.999999964932834e-01
"Vb:p" 3.274288202170016e-13
"Vd:p" -4.763330211727022e-05
"Vg:p" -6.864254647508438e-10
"Vs:p" -8.552099905375075e-22
"vds" 3.300000000000001e-01
"M1:ids" 4.861736352978361e-05
"D" 3.300000000000001e-01
"S" 0.000000000000000e+00
"G" 1.000000000000000e+00
"B" 0.000000000000000e+00
"M1.n1" 9.999999965291297e-01
"Vb:p" 3.374462096849149e-13
"Vd:p" -4.861707214039342e-05
"Vg:p" -6.794086755157988e-10
"Vs:p" -2.430963611747086e-22
"vds" 3.400000000000001e-01
"M1:ids" 4.957037112831470e-05
"D" 3.400000000000001e-01
"S" 0.000000000000000e+00
"G" 1.000000000000000e+00
"B" 0.000000000000000e+00
"M1.n1" 9.999999965643788e-01
"Vb:p" 3.474629746981357e-13
"Vd:p" -4.957008408362454e-05
"Vg:p" -6.725088222653975e-10
"Vs:p" -8.254314884855985e-22
"vds" 3.500000000000001e-01
"M1:ids" 5.049265709138307e-05
"D" 3.500000000000001e-01
"S" 0.000000000000000e+00
"G" 1.000000000000000e+00
"B" 0.000000000000000e+00
"M1.n1" 9.999999965990319e-01
"Vb:p" 3.574791325113398e-13
"Vd:p" -5.049237430656296e-05
"Vg:p" -6.657256164004686e-10
"Vs:p" -5.706597880399412e-22
"vds" 3.600000000000002e-01
"M1:ids" 5.138426516884469e-05
"D" 3.600000000000002e-01
"S" 0.000000000000000e+00
"G" 1.000000000000000e+00
"B" 0.000000000000000e+00
"M1.n1" 9.999999966330899e-01
"Vb:p" 3.674947003043376e-13
"Vd:p" -5.138398655961785e-05
"Vg:p" -6.590589114208711e-10
"Vs:p" 6.106342044708773e-21
"vds" 3.700000000000002e-01
"M1:ids" 5.224524711335138e-05
"D" 3.700000000000002e-01
"S" 0.000000000000000e+00
"G" 1.000000000000000e+00
"B" 0.000000000000000e+00
"M1.n1" 9.999999966665526e-01
"Vb:p" 3.775096951472909e-13
"Vd:p" -5.224497259589632e-05
"Vg:p" -6.525087193781055e-10
"Vs:p" 6.480227753362067e-21
"vds" 3.800000000000002e-01
"M1:ids" 5.307566344085550e-05
"D" 3.800000000000002e-01
"S" 0.000000000000000e+00
"G" 1.000000000000000e+00
"B" 0.000000000000000e+00
"M1.n1" 9.999999966994192e-01
"Vb:p" 3.875241339687237e-13
"Vd:p" -5.307539293169752e-05
"Vg:p" -6.460752296973490e-10
"Vs:p" 6.202294995764925e-21
"vds" 3.900000000000002e-01
"M1:ids" 5.387558437224338e-05
"D" 3.900000000000002e-01
"S" 0.000000000000000e+00
"G" 1.000000000000000e+00
"B" 0.000000000000000e+00
"M1.n1" 9.999999967316875e-01
"Vb:p" 3.975380335262564e-13
"Vd:p" -5.387531778813464e-05
"Vg:p" -6.397588306332524e-10
"Vs:p" -2.856987001136510e-21
"vds" 4.000000000000002e-01
"M1:ids" 5.464509099567314e-05
"D" 4.000000000000002e-01
"S" 0.000000000000000e+00
"G" 1.000000000000000e+00
"B" 0.000000000000000e+00
"M1.n1" 9.999999967633546e-01
"Vb:p" 4.075514103799827e-13
"Vd:p" -5.464482825345871e-05
"Vg:p" -6.335601336286722e-10
"Vs:p" 2.284767901831085e-21
"vds" 4.100000000000002e-01
"M1:ids" 5.538427669766865e-05
"D" 4.100000000000002e-01
"S" 0.000000000000000e+00
"G" 1.000000000000000e+00
"B" 0.000000000000000e+00
"M1.n1" 9.999999967944159e-01
"Vb:p" 4.175642808683955e-13
"Vd:p" -5.538401771413808e-05
"Vg:p" -6.274800008309333e-10
"Vs:p" 2.631382694135107e-22
"vds" 4.200000000000002e-01
"M1:ids" 5.609324892108446e-05
"D" 4.200000000000002e-01
"S" 0.000000000000000e+00
"G" 1.000000000000000e+00
"B" 0.000000000000000e+00
"M1.n1" 9.999999968248657e-01
"Vb:p" 4.275766610867606e-13
"Vd:p" -5.609299361280556e-05
"Vg:p" -6.215195759757006e-10
"Vs:p" -6.724884191448390e-21
"vds" 4.300000000000002e-01
"M1:ids" 5.677213131976081e-05
"D" 4.300000000000002e-01
"S" 0.000000000000000e+00
"G" 1.000000000000000e+00
"B" 0.000000000000000e+00
"M1.n1" 9.999999968546965e-01
"Vb:p" 4.375885668678244e-13
"Vd:p" -5.677187960289518e-05
"Vg:p" -6.156803187575307e-10
"Vs:p" -1.766683127234161e-20
"vds" 4.400000000000002e-01
"M1:ids" 5.742106639292418e-05
"D" 4.400000000000002e-01
"S" 0.000000000000000e+00
"G" 1.000000000000000e+00
"B" 0.000000000000000e+00
"M1.n1" 9.999999968838991e-01
"Vb:p" 4.476000137647446e-13
"Vd:p" -5.742081818302155e-05
"Vg:p" -6.099640426464519e-10
"Vs:p" -9.146876777170730e-21
"vds" 4.500000000000002e-01
"M1:ids" 5.804021869673044e-05
"D" 4.500000000000002e-01
"S" 0.000000000000000e+00
"G" 1.000000000000000e+00
"B" 0.000000000000000e+00
"M1.n1" 9.999999969124620e-01
"Vb:p" 4.576110170361169e-13
"Vd:p" -5.803997390850129e-05
"Vg:p" -6.043729558505768e-10
"Vs:p" -5.092054856811707e-21
"vds" 4.600000000000002e-01
"M1:ids" 5.862977874478437e-05
"D" 4.600000000000002e-01
"S" 0.000000000000000e+00
"G" 1.000000000000000e+00
"B" 0.000000000000000e+00
"M1.n1" 9.999999969403719e-01
"Vb:p" 4.676215916329783e-13
"Vd:p" -5.862953729184768e-05
"Vg:p" -5.989097047256024e-10
"Vs:p" -2.951363758652227e-21
"vds" 4.700000000000003e-01
"M1:ids" 5.918996772214667e-05
"D" 4.700000000000003e-01
"S" 0.000000000000000e+00
"G" 1.000000000000000e+00
"B" 0.000000000000000e+00
"M1.n1" 9.999999969676128e-01
"Vb:p" 4.776317521876574e-13
"Vd:p" -5.918972951675519e-05
"Vg:p" -5.935774183419912e-10
"Vs:p" -3.656069313419651e-21
"vds" 4.800000000000003e-01
"M1:ids" 5.972104314500463e-05
"D" 4.800000000000003e-01
"S" 0.000000000000000e+00
"G" 1.000000000000000e+00
"B" 0.000000000000000e+00
"M1.n1" 9.999999969941660e-01
"Vb:p" 4.876415130043457e-13
"Vd:p" -5.972080809774603e-05
"Vg:p" -5.883797520806070e-10
"Vs:p" 3.613350891079624e-21
"vds" 4.900000000000003e-01
"M1:ids" 6.022330559565610e-05
"D" 4.900000000000003e-01
"S" 0.000000000000000e+00
"G" 1.000000000000000e+00
"B" 0.000000000000000e+00
"M1.n1" 9.999999970200097e-01
"Vb:p" 4.976508880512636e-13
"Vd:p" -6.022307361513311e-05
"Vg:p" -5.833209269759707e-10
"Vs:p" 6.403067881807748e-22
"vds" 5.000000000000002e-01
"M1:ids" 6.069710664190873e-05
"D" 5.000000000000002e-01
"S" 0.000000000000000e+00
"G" 1.000000000000000e+00
"B" 0.000000000000000e+00
"M1.n1" 9.999999970451197e-01
"Vb:p" 5.076598909542996e-13
"Vd:p" -6.069687763440526e-05
"Vg:p" -5.784057600141425e-10
"Vs:p" -5.281431808938526e-22
"vds" 5.100000000000002e-01
"M1:ids" 6.114285800041042e-05
"D" 5.100000000000002e-01
"S" 0.000000000000000e+00
"G" 1.000000000000000e+00
"B" 0.000000000000000e+00
"M1.n1" 9.999999970694680e-01
"Vb:p" 5.176685349920037e-13
"Vd:p" -6.114263186955048e-05
"Vg:p" -5.736396787122086e-10
"Vs:p" 6.385673907600182e-21
"vds" 5.200000000000002e-01
"M1:ids" 6.156104191052029e-05
"D" 5.200000000000002e-01
"S" 0.000000000000000e+00
"G" 1.000000000000000e+00
"B" 0.000000000000000e+00
"M1.n1" 9.999999970930239e-01
"Vb:p" 5.276768330918291e-13
"Vd:p" -6.156081855693613e-05
"Vg:p" -5.690287111390948e-10
"Vs:p" 1.134024424801699e-20
"vds" 5.300000000000002e-01
"M1:ids" 6.195222253278684e-05
"D" 5.300000000000002e-01
"S" 0.000000000000000e+00
"G" 1.000000000000000e+00
"B" 0.000000000000000e+00
"M1.n1" 9.999999971157537e-01
"Vb:p" 5.376847978275318e-13
"Vd:p" -6.195200185381531e-05
"Vg:p" -5.645794403214532e-10
"Vs:p" 2.083817357012668e-20
"vds" 5.400000000000003e-01
"M1:ids" 6.231705795906742e-05
"D" 5.400000000000003e-01
"S" 0.000000000000000e+00
"G" 1.000000000000000e+00
"B" 0.000000000000000e+00
"M1.n1" 9.999999971376214e-01
"Vb:p" 5.476924414176537e-13
"Vd:p" -6.231683984850272e-05
"Vg:p" -5.602989101933041e-10
