HEADER
"PSFversion" "1.00"
"simulator" "spectre"
"version" "23.1.0.242.isr1"
"date" "5:46:18 PM, Tue Apr 15, 2025"
"design" "#RC Low-Pass Filter"
"analysis type" "ac"
"analysis name" "myac"
"analysis description" "AC Analysis `myac': freq = (1 Hz -> 1 MHz)"
"xVecSorted" "ascending"
"tolerance.relative" 1.000000000000000e-03
"start" 1.000000000000000e+00
"stop" 1.000000000000000e+06
"operating point producer" "myac"
TYPE
"sweep" FLOAT DOUBLE PROP(
"key" "sweep"
)
"V" COMPLEX DOUBLE PROP(
"units" "V"
"key" "node"
"tolerance" 1.000000000000000e-06
)
"I" COMPLEX DOUBLE PROP(
"units" "A"
"key" "branch"
"tolerance" 1.000000000000000e-12
)
"MMF" COMPLEX DOUBLE PROP(
"units" "A*turn"
"key" "node"
"tolerance" 1.000000000000000e-12
)
"Wb" COMPLEX DOUBLE PROP(
"units" "Wb"
"key" "node"
"tolerance" 1.000000000000000e-09
)
"Temp" COMPLEX DOUBLE PROP(
"units" "C"
"key" "node"
"tolerance" 1.000000000000000e-04
)
"Pwr" COMPLEX DOUBLE PROP(
"units" "W"
"key" "node"
"tolerance" 1.000000000000000e-09
)
"U" COMPLEX DOUBLE PROP(
"units" ""
"key" "node"
"tolerance" 1.000000000000000e-06
)
"V/Sec" COMPLEX DOUBLE PROP(
"units" "V/s"
"key" "node"
"tolerance" 9.999999999999999e-05
)
"I/Sec" COMPLEX DOUBLE PROP(
"units" "A/s"
"key" "node"
"tolerance" 1.000000000000000e-06
)
"1/Sec" COMPLEX DOUBLE PROP(
"units" "1/s"
"key" "node"
"tolerance" 9.999999999999999e-05
)
"HOD" COMPLEX DOUBLE PROP(
"units" ""
"key" "node"
"tolerance" 1.000000000000000e-02
)
"Q" COMPLEX DOUBLE PROP(
"units" "Coul"
"key" "node"
"tolerance" 1.000000000000000e-15
)
SWEEP
"freq" "sweep" PROP(
"sweep_direction" 0
"units" "Hz"
"plot" 0
"grid" 3
)
TRACE
"in" "V"
"out" "V"
VALUE
"freq" 1.000000000000000e+00
"in" (1.000000000000000e+00 0.000000000000000e+00)
"out" (9.999605231408795e-01 -6.282937266758386e-03)
"freq" 1.995262314968880e+00
"in" (1.000000000000000e+00 0.000000000000000e+00)
"out" (9.998428582860952e-01 -1.253463283812141e-02)
"freq" 3.981071705534973e+00
"in" (1.000000000000000e+00 0.000000000000000e+00)
"out" (9.993747004910177e-01 -2.499817012315517e-02)
"freq" 7.943282347242817e+00
"in" (1.000000000000000e+00 0.000000000000000e+00)
"out" (9.975152695106657e-01 -4.978510423540042e-02)
"freq" 1.584893192461114e+01
"in" (1.000000000000000e+00 0.000000000000000e+00)
"out" (9.901808418263091e-01 -9.860396699144981e-02)
"freq" 3.162277660168381e+01
"in" (1.000000000000000e+00 0.000000000000000e+00)
"out" (9.620209357541625e-01 -1.911456379958698e-01)
"freq" 6.309573444801936e+01
"in" (1.000000000000000e+00 0.000000000000000e+00)
"out" (8.641799400944487e-01 -3.425973894132933e-01)
"freq" 1.258925411794168e+02
"in" (1.000000000000000e+00 0.000000000000000e+00)
"out" (6.151231395586010e-01 -4.865661956385492e-01)
"freq" 2.511886431509582e+02
"in" (1.000000000000000e+00 0.000000000000000e+00)
"out" (2.864574583735095e-01 -4.521057209499771e-01)
"freq" 5.011872336272726e+02
"in" (1.000000000000000e+00 0.000000000000000e+00)
"out" (9.160419896210752e-02 -2.884664099936388e-01)
"freq" 1.000000000000001e+03
"in" (1.000000000000000e+00 0.000000000000000e+00)
"out" (2.470452303185761e-02 -1.552230961346475e-01)
"freq" 1.995262314968881e+03
"in" (1.000000000000000e+00 0.000000000000000e+00)
"out" (6.322454886315687e-03 -7.926210601874133e-02)
"freq" 3.981071705534976e+03
"in" (1.000000000000000e+00 0.000000000000000e+00)
"out" (1.595683349481163e-03 -3.991412211397555e-02)
"freq" 7.943282347242824e+03
"in" (1.000000000000000e+00 0.000000000000000e+00)
"out" (4.012970315590297e-04 -2.002837967114393e-02)
"freq" 1.584893192461115e+04
"in" (1.000000000000000e+00 0.000000000000000e+00)
"out" (1.008315563144489e-04 -1.004098547512644e-02)
"freq" 3.162277660168383e+04
"in" (1.000000000000000e+00 0.000000000000000e+00)
"out" (2.532965430294558e-05 -5.032793728294303e-03)
"freq" 6.309573444801941e+04
"in" (1.000000000000000e+00 0.000000000000000e+00)
"out" (6.362642176918898e-06 -2.522419809172023e-03)
"freq" 1.258925411794169e+05
"in" (1.000000000000000e+00 0.000000000000000e+00)
"out" (1.598231069917347e-06 -1.264210629434349e-03)
"freq" 2.511886431509584e+05
"in" (1.000000000000000e+00 0.000000000000000e+00)
"out" (4.014579743485377e-07 -6.336069863724930e-04)
"freq" 5.011872336272731e+05
"in" (1.000000000000000e+00 0.000000000000000e+00)
"out" (1.008417141734033e-07 -3.175558281693977e-04)
"freq" 1.000000000000000e+06
"in" (1.000000000000000e+00 0.000000000000000e+00)
"out" (2.533029526896058e-08 -1.591549390604537e-04)
END
