HEADER
"PSFversion" "1.00"
"simulator" "spectre"
"version" "23.1.0.242.isr1"
"date" "5:46:18 PM, Tue Apr 15, 2025"
"design" "#RC Low-Pass Filter"
"analysis type" "dc"
"analysis name" "mymonte-003_dc2"
"analysis description" "DC Analysis `mymonte-003_dc2': Vin:dc = (0 V -> 2 V)"
"xVecSorted" "unsorted"
"tolerance.relative" 1.000000000000000e-03
"reltol" 1.000000000000000e-03
"abstol(V)" 1.000000000000000e-06
"abstol(I)" 1.000000000000000e-12
"temp" 2.700000000000000e+01
"tnom" 2.700000000000000e+01
"tempeffects" "all"
"gmindc" 1.000000000000000e-12
TYPE
"sweep" FLOAT DOUBLE PROP(
"key" "sweep"
)
"LogicV" FLOAT DOUBLE PROP(
"key" "node"
)
"V" FLOAT DOUBLE PROP(
"units" "V"
"key" "node"
"tolerance" 1.000000000000000e-06
)
"I" FLOAT DOUBLE PROP(
"units" "A"
"key" "branch"
"tolerance" 1.000000000000000e-12
)
"MMF" FLOAT DOUBLE PROP(
"units" "A*turn"
"key" "node"
"tolerance" 1.000000000000000e-12
)
"Wb" FLOAT DOUBLE PROP(
"units" "Wb"
"key" "node"
"tolerance" 1.000000000000000e-09
)
"Temp" FLOAT DOUBLE PROP(
"units" "C"
"key" "node"
"tolerance" 1.000000000000000e-04
)
"Pwr" FLOAT DOUBLE PROP(
"units" "W"
"key" "node"
"tolerance" 1.000000000000000e-09
)
"U" FLOAT DOUBLE PROP(
"units" ""
"key" "node"
"tolerance" 1.000000000000000e-06
)
"V/Sec" FLOAT DOUBLE PROP(
"units" "V/s"
"key" "node"
"tolerance" 9.999999999999999e-05
)
"I/Sec" FLOAT DOUBLE PROP(
"units" "A/s"
"key" "node"
"tolerance" 1.000000000000000e-06
)
"1/Sec" FLOAT DOUBLE PROP(
"units" "1/s"
"key" "node"
"tolerance" 9.999999999999999e-05
)
"HOD" FLOAT DOUBLE PROP(
"units" ""
"key" "node"
"tolerance" 1.000000000000000e-02
)
"Q" FLOAT DOUBLE PROP(
"units" "Coul"
"key" "node"
"tolerance" 1.000000000000000e-15
)
SWEEP
"dc" "sweep" PROP(
"sweep_direction" 0
"units" "V"
"plot" 0
"grid" 1
)
TRACE
"in" "V"
"out" "V"
VALUE
"dc" 0.000000000000000e+00
"in" 0.000000000000000e+00
"out" 0.000000000000000e+00
"dc" 1.000000000000000e-01
"in" 1.000000000000000e-01
"out" 1.000000000000000e-01
"dc" 2.000000000000000e-01
"in" 2.000000000000000e-01
"out" 2.000000000000000e-01
"dc" 3.000000000000000e-01
"in" 3.000000000000000e-01
"out" 3.000000000000000e-01
"dc" 4.000000000000000e-01
"in" 4.000000000000000e-01
"out" 4.000000000000000e-01
"dc" 5.000000000000000e-01
"in" 5.000000000000000e-01
"out" 5.000000000000000e-01
"dc" 6.000000000000000e-01
"in" 6.000000000000000e-01
"out" 6.000000000000000e-01
"dc" 7.000000000000000e-01
"in" 7.000000000000000e-01
"out" 7.000000000000000e-01
"dc" 7.999999999999999e-01
"in" 7.999999999999999e-01
"out" 7.999999999999999e-01
"dc" 8.999999999999999e-01
"in" 8.999999999999999e-01
"out" 8.999999999999999e-01
"dc" 9.999999999999999e-01
"in" 9.999999999999999e-01
"out" 9.999999999999999e-01
"dc" 1.100000000000000e+00
"in" 1.100000000000000e+00
"out" 1.100000000000000e+00
"dc" 1.200000000000000e+00
"in" 1.200000000000000e+00
"out" 1.200000000000000e+00
"dc" 1.300000000000000e+00
"in" 1.300000000000000e+00
"out" 1.300000000000000e+00
"dc" 1.400000000000000e+00
"in" 1.400000000000000e+00
"out" 1.400000000000000e+00
"dc" 1.500000000000000e+00
"in" 1.500000000000000e+00
"out" 1.500000000000000e+00
"dc" 1.600000000000000e+00
"in" 1.600000000000000e+00
"out" 1.600000000000000e+00
"dc" 1.700000000000000e+00
"in" 1.700000000000000e+00
"out" 1.700000000000000e+00
"dc" 1.800000000000000e+00
"in" 1.800000000000000e+00
"out" 1.800000000000000e+00
"dc" 1.900000000000001e+00
"in" 1.900000000000001e+00
"out" 1.900000000000001e+00
"dc" 2.000000000000000e+00
"in" 2.000000000000000e+00
"out" 2.000000000000000e+00
END
