HEADER
"PSFversion" "1.00"
"simulator" "spectre"
"version" "23.1.0.242.isr1"
"date" "5:46:18 PM, Tue Apr 15, 2025"
"design" "#RC Low-Pass Filter"
"analysis type" "tran"
"analysis name" "mymonte-002_tran1"
"analysis description" "Transient Analysis `mymonte-002_tran1': time = (0 s -> 5 ms)"
"xVecSorted" "ascending"
"tolerance.relative" 1.000000000000000e-03
"start" 0.000000000000000e+00
"outputstart" 0.000000000000000e+00
"stop" 5.000000000000000e-03
"step" 5.000000000000000e-06
"istep" 1.000000000000000e-03
"maxstep" 1.000000000000000e-04
"ic" "all"
"useprevic" "no"
"skipdc" "no"
"reltol" 1.000000000000000e-03
"abstol(V)" 1.000000000000000e-06
"abstol(I)" 1.000000000000000e-12
"temp" 2.700000000000000e+01
"tnom" 2.700000000000000e+01
"tempeffects" "all"
"errpreset" "moderate"
"method" "traponly"
"lteratio" 3.500000000000000e+00
"relref" "sigglobal"
"cmin" 0.000000000000000e+00
"gmin" 1.000000000000000e-12
TYPE
"sweep" FLOAT DOUBLE PROP(
"key" "sweep"
)
"LogicV" FLOAT DOUBLE PROP(
"key" "node"
)
"V" FLOAT DOUBLE PROP(
"units" "V"
"key" "node"
"tolerance" 1.000000000000000e-06
)
"I" FLOAT DOUBLE PROP(
"units" "A"
"key" "branch"
"tolerance" 1.000000000000000e-12
)
"MMF" FLOAT DOUBLE PROP(
"units" "A*turn"
"key" "node"
"tolerance" 1.000000000000000e-12
)
"Wb" FLOAT DOUBLE PROP(
"units" "Wb"
"key" "node"
"tolerance" 1.000000000000000e-09
)
"Temp" FLOAT DOUBLE PROP(
"units" "C"
"key" "node"
"tolerance" 1.000000000000000e-04
)
"Pwr" FLOAT DOUBLE PROP(
"units" "W"
"key" "node"
"tolerance" 1.000000000000000e-09
)
"U" FLOAT DOUBLE PROP(
"units" ""
"key" "node"
"tolerance" 1.000000000000000e-06
)
"V/Sec" FLOAT DOUBLE PROP(
"units" "V/s"
"key" "node"
"tolerance" 9.999999999999999e-05
)
"I/Sec" FLOAT DOUBLE PROP(
"units" "A/s"
"key" "node"
"tolerance" 1.000000000000000e-06
)
"1/Sec" FLOAT DOUBLE PROP(
"units" "1/s"
"key" "node"
"tolerance" 9.999999999999999e-05
)
"HOD" FLOAT DOUBLE PROP(
"units" ""
"key" "node"
"tolerance" 1.000000000000000e-02
)
"Q" FLOAT DOUBLE PROP(
"units" "Coul"
"key" "node"
"tolerance" 1.000000000000000e-15
)
SWEEP
"time" "sweep" PROP(
"sweep_direction" 0
"units" "s"
"plot" 0
"grid" 1
)
TRACE
"in" "V"
"out" "V"
VALUE
"time" 0.000000000000000e+00
"in" 1.000000000000000e+00
"out" 1.000000000000000e+00
"time" 5.000000000000000e-06
"in" 1.031410759078128e+00
"out" 1.000007809929750e+00
"time" 1.500000000000000e-05
"in" 1.094108313318514e+00
"out" 1.000054592348183e+00
"time" 3.500000000000001e-05
"in" 1.218143241396543e+00
"out" 1.000209775098955e+00
"time" 7.500000000000003e-05
"in" 1.453990499739547e+00
"out" 1.000877333681835e+00
"time" 1.550000000000001e-04
"in" 1.827080574274562e+00
"out" 1.003417612766114e+00
"time" 2.383333333333334e-04
"in" 1.997314477224458e+00
"out" 1.007176722594553e+00
"time" 3.216666666666667e-04
"in" 1.900318771402193e+00
"out" 1.011071755659029e+00
"time" 4.050000000000000e-04
"in" 1.562083377852130e+00
"out" 1.014050524403810e+00
"time" 4.883333333333333e-04
"in" 1.073238197127632e+00
"out" 1.015306388786018e+00
"time" 5.716666666666667e-04
"in" 5.647689006276723e-01
"out" 1.014494394677976e+00
"time" 6.550000000000001e-04
"in" 1.729194257254378e-01
"out" 1.011823703902028e+00
"time" 7.383333333333335e-04
"in" 2.685522775541793e-03
"out" 1.008001549344643e+00
"time" 8.216666666666668e-04
"in" 9.968122859780693e-02
"out" 1.004043732331700e+00
"time" 9.050000000000002e-04
"in" 4.379166221478705e-01
"out" 1.001002439340227e+00
"time" 9.883333333333335e-04
"in" 9.267618028723691e-01
"out" 9.996843093388643e-01
"time" 1.071666666666667e-03
"in" 1.435231099372328e+00
"out" 1.000434295385493e+00
"time" 1.155000000000000e-03
"in" 1.827080574274562e+00
"out" 1.003043234592395e+00
"time" 1.238333333333333e-03
"in" 1.997314477224458e+00
"out" 1.006803893012140e+00
"time" 1.321666666666667e-03
"in" 1.900318771402194e+00
"out" 1.010700468262273e+00
"time" 1.405000000000000e-03
"in" 1.562083377852133e+00
"out" 1.013680772813560e+00
"time" 1.488333333333333e-03
"in" 1.073238197127635e+00
"out" 1.014938166649508e+00
"time" 1.571666666666666e-03
"in" 5.647689006276740e-01
"out" 1.014127695668719e+00
"time" 1.655000000000000e-03
"in" 1.729194257254395e-01
"out" 1.011458521719706e+00
"time" 1.738333333333333e-03
"in" 2.685522775542126e-03
"out" 1.007637877714999e+00
"time" 1.821666666666666e-03
"in" 9.968122859780493e-02
"out" 1.003681565006428e+00
"time" 1.904999999999999e-03
"in" 4.379166221478660e-01
"out" 1.000641770096869e+00
"time" 1.988333333333333e-03
"in" 9.267618028723653e-01
"out" 9.993251319807015e-01
"time" 2.071666666666666e-03
"in" 1.435231099372326e+00
"out" 1.000076603741437e+00
"time" 2.154999999999999e-03
"in" 1.827080574274559e+00
"out" 1.002687022516886e+00
"time" 2.238333333333333e-03
"in" 1.997314477224458e+00
"out" 1.006449154385037e+00
"time" 2.321666666666666e-03
"in" 1.900318771402196e+00
"out" 1.010347196988751e+00
"time" 2.404999999999999e-03
"in" 1.562083377852134e+00
"out" 1.013328962824005e+00
"time" 2.488333333333332e-03
"in" 1.073238197127638e+00
"out" 1.014587811899413e+00
"time" 2.571666666666666e-03
"in" 5.647689006276790e-01
"out" 1.013778790138578e+00
"time" 2.654999999999999e-03
"in" 1.729194257254426e-01
"out" 1.011111059414915e+00
"time" 2.738333333333332e-03
"in" 2.685522775542237e-03
"out" 1.007291852665748e+00
"time" 2.821666666666665e-03
"in" 9.968122859780248e-02
"out" 1.003336971267602e+00
"time" 2.904999999999999e-03
"in" 4.379166221478643e-01
"out" 1.000298601747945e+00
"time" 2.988333333333332e-03
"in" 9.267618028723580e-01
"out" 9.989833831256447e-01
"time" 3.071666666666665e-03
"in" 1.435231099372321e+00
"out" 9.997362685086024e-01
"time" 3.154999999999999e-03
"in" 1.827080574274555e+00
"out" 1.002348095058915e+00
"time" 3.238333333333332e-03
"in" 1.997314477224458e+00
"out" 1.006111628878760e+00
"time" 3.321666666666665e-03
"in" 1.900318771402199e+00
"out" 1.010011067635085e+00
"time" 3.404999999999998e-03
"in" 1.562083377852139e+00
"out" 1.012994223847854e+00
"time" 3.488333333333332e-03
"in" 1.073238197127646e+00
"out" 1.014254457549569e+00
"time" 3.571666666666665e-03
"in" 5.647689006276825e-01
"out" 1.013446814687624e+00
"time" 3.654999999999998e-03
"in" 1.729194257254447e-01
"out" 1.010780457159123e+00
"time" 3.738333333333331e-03
"in" 2.685522775542792e-03
"out" 1.006962617924985e+00
"time" 3.821666666666665e-03
"in" 9.968122859780082e-02
"out" 1.003009098385231e+00
"time" 3.904999999999998e-03
"in" 4.379166221478582e-01
"out" 9.999720850907244e-01
"time" 3.988333333333332e-03
"in" 9.267618028723542e-01
"out" 9.986582170836364e-01
"time" 4.071666666666665e-03
"in" 1.435231099372321e+00
"out" 9.994124474950734e-01
"time" 4.154999999999999e-03
"in" 1.827080574274559e+00
"out" 1.002025613510242e+00
"time" 4.238333333333333e-03
"in" 1.997314477224458e+00
"out" 1.005790481254331e+00
"time" 4.321666666666666e-03
"in" 1.900318771402195e+00
"out" 1.009691248417209e+00
"time" 4.405000000000000e-03
"in" 1.562083377852130e+00
"out" 1.012675727541662e+00
"time" 4.488333333333334e-03
"in" 1.073238197127628e+00
"out" 1.013937278682922e+00
"time" 4.571666666666667e-03
"in" 5.647689006276699e-01
"out" 1.013130947811018e+00
"time" 4.655000000000001e-03
"in" 1.729194257254349e-01
"out" 1.010465896845595e+00
"time" 4.738333333333335e-03
"in" 2.685522775541238e-03
"out" 1.006649358770020e+00
"time" 4.821666666666669e-03
"in" 9.968122859781159e-02
"out" 1.002697135006670e+00
"time" 4.905000000000002e-03
"in" 4.379166221478785e-01
"out" 9.996614121286729e-01
"time" 4.952500000000001e-03
"in" 7.059596747677042e-01
"out" 9.986520420475904e-01
"time" 5.000000000000000e-03
"in" 9.999999999999988e-01
"out" 9.983082749965047e-01
END
