HEADER
"PSFversion" "1.00"
"simulator" "spectre"
"version" "23.1.0.242.isr1"
"date" "5:46:18 PM, Tue Apr 15, 2025"
"design" "#RC Low-Pass Filter"
"analysis type" "ac"
"analysis name" "mysweep-002_mynestedsweep-001_ac2"
"analysis description" "AC Analysis `mysweep-002_mynestedsweep-001_ac2': freq = (1 Hz -> 1 MHz)"
"xVecSorted" "ascending"
"tolerance.relative" 1.000000000000000e-03
"start" 1.000000000000000e+00
"stop" 1.000000000000000e+06
"operating point producer" "mysweep-002_mynestedsweep-001_ac2"
TYPE
"sweep" FLOAT DOUBLE PROP(
"key" "sweep"
)
"V" COMPLEX DOUBLE PROP(
"units" "V"
"key" "node"
"tolerance" 1.000000000000000e-06
)
"I" COMPLEX DOUBLE PROP(
"units" "A"
"key" "branch"
"tolerance" 1.000000000000000e-12
)
"MMF" COMPLEX DOUBLE PROP(
"units" "A*turn"
"key" "node"
"tolerance" 1.000000000000000e-12
)
"Wb" COMPLEX DOUBLE PROP(
"units" "Wb"
"key" "node"
"tolerance" 1.000000000000000e-09
)
"Temp" COMPLEX DOUBLE PROP(
"units" "C"
"key" "node"
"tolerance" 1.000000000000000e-04
)
"Pwr" COMPLEX DOUBLE PROP(
"units" "W"
"key" "node"
"tolerance" 1.000000000000000e-09
)
"U" COMPLEX DOUBLE PROP(
"units" ""
"key" "node"
"tolerance" 1.000000000000000e-06
)
"V/Sec" COMPLEX DOUBLE PROP(
"units" "V/s"
"key" "node"
"tolerance" 9.999999999999999e-05
)
"I/Sec" COMPLEX DOUBLE PROP(
"units" "A/s"
"key" "node"
"tolerance" 1.000000000000000e-06
)
"1/Sec" COMPLEX DOUBLE PROP(
"units" "1/s"
"key" "node"
"tolerance" 9.999999999999999e-05
)
"HOD" COMPLEX DOUBLE PROP(
"units" ""
"key" "node"
"tolerance" 1.000000000000000e-02
)
"Q" COMPLEX DOUBLE PROP(
"units" "Coul"
"key" "node"
"tolerance" 1.000000000000000e-15
)
SWEEP
"freq" "sweep" PROP(
"sweep_direction" 0
"units" "Hz"
"plot" 0
"grid" 3
)
TRACE
"in" "V"
"out" "V"
VALUE
"freq" 1.000000000000000e+00
"in" (1.000000000000000e+00 0.000000000000000e+00)
"out" (9.985807939745363e-01 -3.764560903639519e-02)
"freq" 1.122018454301963e+00
"in" (1.000000000000000e+00 0.000000000000000e+00)
"out" (9.982139817754182e-01 -4.222355223667436e-02)
"freq" 1.258925411794167e+00
"in" (1.000000000000000e+00 0.000000000000000e+00)
"out" (9.977525755824648e-01 -4.735370630713925e-02)
"freq" 1.412537544622754e+00
"in" (1.000000000000000e+00 0.000000000000000e+00)
"out" (9.971723057681950e-01 -5.310083216990614e-02)
"freq" 1.584893192461113e+00
"in" (1.000000000000000e+00 0.000000000000000e+00)
"out" (9.964427483588937e-01 -5.953652325982980e-02)
"freq" 1.778279410038922e+00
"in" (1.000000000000000e+00 0.000000000000000e+00)
"out" (9.955258065262393e-01 -6.673960643066523e-02)
"freq" 1.995262314968879e+00
"in" (1.000000000000000e+00 0.000000000000000e+00)
"out" (9.943738419436174e-01 -7.479641971316013e-02)
"freq" 2.238721138568339e+00
"in" (1.000000000000000e+00 0.000000000000000e+00)
"out" (9.929273897145080e-01 -8.380088584998079e-02)
"freq" 2.511886431509579e+00
"in" (1.000000000000000e+00 0.000000000000000e+00)
"out" (9.911123868789745e-01 -9.385426710617110e-02)
"freq" 2.818382931264452e+00
"in" (1.000000000000000e+00 0.000000000000000e+00)
"out" (9.888368469619894e-01 -1.050644423782882e-01)
"freq" 3.162277660168377e+00
"in" (1.000000000000000e+00 0.000000000000000e+00)
"out" (9.859869266880776e-01 -1.175444898252447e-01)
"freq" 3.548133892335751e+00
"in" (1.000000000000000e+00 0.000000000000000e+00)
"out" (9.824223635653394e-01 -1.314102854879767e-01)
"freq" 3.981071705534969e+00
"in" (1.000000000000000e+00 0.000000000000000e+00)
"out" (9.779713258462581e-01 -1.467767408984479e-01)
"freq" 4.466835921509626e+00
"in" (1.000000000000000e+00 0.000000000000000e+00)
"out" (9.724248251477844e-01 -1.637522048220581e-01)
"freq" 5.011872336272718e+00
"in" (1.000000000000000e+00 0.000000000000000e+00)
"out" (9.655310171996405e-01 -1.824304580520148e-01)
"freq" 5.623413251903484e+00
"in" (1.000000000000000e+00 0.000000000000000e+00)
"out" (9.569899815568161e-01 -2.028796607762859e-01)
"freq" 6.309573444801925e+00
"in" (1.000000000000000e+00 0.000000000000000e+00)
"out" (9.464499488989698e-01 -2.251276152054812e-01)
"freq" 7.079457843841370e+00
"in" (1.000000000000000e+00 0.000000000000000e+00)
"out" (9.335064442048048e-01 -2.491428562750826e-01)
"freq" 7.943282347242804e+00
"in" (1.000000000000000e+00 0.000000000000000e+00)
"out" (9.177064110204622e-01 -2.748114884651017e-01)
"freq" 8.912509381337442e+00
"in" (1.000000000000000e+00 0.000000000000000e+00)
"out" (8.985599834774675e-01 -3.019104827104233e-01)
"freq" 9.999999999999984e+00
"in" (1.000000000000000e+00 0.000000000000000e+00)
"out" (8.755629734612257e-01 -3.300794646217221e-01)
"freq" 1.122018454301961e+01
"in" (1.000000000000000e+00 0.000000000000000e+00)
"out" (8.482329844520690e-01 -3.587949115296998e-01)
"freq" 1.258925411794165e+01
"in" (1.000000000000000e+00 0.000000000000000e+00)
"out" (8.161608525462292e-01 -3.873529596082125e-01)
"freq" 1.412537544622752e+01
"in" (1.000000000000000e+00 0.000000000000000e+00)
"out" (7.790763307539266e-01 -4.148691379374043e-01)
"freq" 1.584893192461110e+01
"in" (1.000000000000000e+00 0.000000000000000e+00)
"out" (7.369223446066245e-01 -4.403042159985522e-01)
"freq" 1.778279410038919e+01
"in" (1.000000000000000e+00 0.000000000000000e+00)
"out" (6.899262968061759e-01 -4.625235148416698e-01)
"freq" 1.995262314968875e+01
"in" (1.000000000000000e+00 0.000000000000000e+00)
"out" (6.386515436939196e-01 -4.803912462059369e-01)
"freq" 2.238721138568335e+01
"in" (1.000000000000000e+00 0.000000000000000e+00)
"out" (5.840102067796252e-01 -4.928917580532714e-01)
"freq" 2.511886431509575e+01
"in" (1.000000000000000e+00 0.000000000000000e+00)
"out" (5.272228593952548e-01 -4.992583659052156e-01)
"freq" 2.818382931264447e+01
"in" (1.000000000000000e+00 0.000000000000000e+00)
"out" (4.697222700048382e-01 -4.990824171079764e-01)
"freq" 3.162277660168372e+01
"in" (1.000000000000000e+00 0.000000000000000e+00)
"out" (4.130144088578087e-01 -4.923753719812187e-01)
"freq" 3.548133892335746e+01
"in" (1.000000000000000e+00 0.000000000000000e+00)
"out" (3.585239691920235e-01 -4.795670262922801e-01)
"freq" 3.981071705534962e+01
"in" (1.000000000000000e+00 0.000000000000000e+00)
"out" (3.074570594141552e-01 -4.614403710454427e-01)
"freq" 4.466835921509619e+01
"in" (1.000000000000000e+00 0.000000000000000e+00)
"out" (2.607077386812178e-01 -4.390207440121067e-01)
"freq" 5.011872336272709e+01
"in" (1.000000000000000e+00 0.000000000000000e+00)
"out" (2.188207339219135e-01 -4.134467563396629e-01)
"freq" 5.623413251903474e+01
"in" (1.000000000000000e+00 0.000000000000000e+00)
"out" (1.820067457783706e-01 -3.858500878184922e-01)
"freq" 6.309573444801914e+01
"in" (1.000000000000000e+00 0.000000000000000e+00)
"out" (1.501954612128694e-01 -3.572629068962000e-01)
"freq" 7.079457843841358e+01
"in" (1.000000000000000e+00 0.000000000000000e+00)
"out" (1.231074020975415e-01 -3.285604505206549e-01)
"freq" 7.943282347242791e+01
"in" (1.000000000000000e+00 0.000000000000000e+00)
"out" (1.003279609384768e-01 -3.004367840202066e-01)
"freq" 8.912509381337428e+01
"in" (1.000000000000000e+00 0.000000000000000e+00)
"out" (8.137242182737522e-02 -2.734062010879104e-01)
"freq" 9.999999999999969e+01
"in" (1.000000000000000e+00 0.000000000000000e+00)
"out" (6.573658022587062e-02 -2.478210690116526e-01)
"freq" 1.122018454301960e+02
"in" (1.000000000000000e+00 0.000000000000000e+00)
"out" (5.293207172701658e-02 -2.238978952775183e-01)
"freq" 1.258925411794163e+02
"in" (1.000000000000000e+00 0.000000000000000e+00)
"out" (4.250821036530230e-02 -2.017455387780397e-01)
"freq" 1.412537544622750e+02
"in" (1.000000000000000e+00 0.000000000000000e+00)
"out" (3.406327803870910e-02 -1.813917614666297e-01)
"freq" 1.584893192461108e+02
"in" (1.000000000000000e+00 0.000000000000000e+00)
"out" (2.724832128841543e-02 -1.628061739473620e-01)
"freq" 1.778279410038917e+02
"in" (1.000000000000000e+00 0.000000000000000e+00)
"out" (2.176609271005830e-02 -1.459189155599624e-01)
"freq" 1.995262314968873e+02
"in" (1.000000000000000e+00 0.000000000000000e+00)
"out" (1.736716909644981e-02 -1.306351810731900e-01)
"freq" 2.238721138568332e+02
"in" (1.000000000000000e+00 0.000000000000000e+00)
"out" (1.384468510418549e-02 -1.168460944942168e-01)
"freq" 2.511886431509571e+02
"in" (1.000000000000000e+00 0.000000000000000e+00)
"out" (1.102862786492079e-02 -1.044365703780907e-01)
"freq" 2.818382931264443e+02
"in" (1.000000000000000e+00 0.000000000000000e+00)
"out" (8.780266583292786e-03 -9.329080073629499e-02)
"freq" 3.162277660168368e+02
"in" (1.000000000000000e+00 0.000000000000000e+00)
"out" (6.987031206275881e-03 -8.329593388154315e-02)
"freq" 3.548133892335741e+02
"in" (1.000000000000000e+00 0.000000000000000e+00)
"out" (5.557983180639301e-03 -7.434441474383285e-02)
"freq" 3.981071705534957e+02
"in" (1.000000000000000e+00 0.000000000000000e+00)
"out" (4.419915463206382e-03 -6.633535867472559e-02)
"freq" 4.466835921509614e+02
"in" (1.000000000000000e+00 0.000000000000000e+00)
"out" (3.514058108423172e-03 -5.917524401330168e-02)
"freq" 5.011872336272703e+02
"in" (1.000000000000000e+00 0.000000000000000e+00)
"out" (2.793334435591848e-03 -5.277813674546293e-02)
"freq" 5.623413251903468e+02
"in" (1.000000000000000e+00 0.000000000000000e+00)
"out" (2.220099880854882e-03 -4.706560354838669e-02)
"freq" 6.309573444801906e+02
"in" (1.000000000000000e+00 0.000000000000000e+00)
"out" (1.764293616663731e-03 -4.196642568408621e-02)
"freq" 7.079457843841349e+02
"in" (1.000000000000000e+00 0.000000000000000e+00)
"out" (1.401936948447006e-03 -3.741619330236020e-02)
"freq" 7.943282347242780e+02
"in" (1.000000000000000e+00 0.000000000000000e+00)
"out" (1.113919287657702e-03 -3.335683545359611e-02)
"freq" 8.912509381337416e+02
"in" (1.000000000000000e+00 0.000000000000000e+00)
"out" (8.850203010869324e-04 -2.973612348900906e-02)
"freq" 9.999999999999955e+02
"in" (1.000000000000000e+00 0.000000000000000e+00)
"out" (7.031245987898700e-04 -2.650717288939820e-02)
"freq" 1.122018454301958e+03
"in" (1.000000000000000e+00 0.000000000000000e+00)
"out" (5.585925010168657e-04 -2.362795961217713e-02)
"freq" 1.258925411794161e+03
"in" (1.000000000000000e+00 0.000000000000000e+00)
"out" (4.437567770172158e-04 -2.106086078345487e-02)
"freq" 1.412537544622747e+03
"in" (1.000000000000000e+00 0.000000000000000e+00)
"out" (3.525207112797918e-04 -1.877222523911085e-02)
"freq" 1.584893192461106e+03
"in" (1.000000000000000e+00 0.000000000000000e+00)
"out" (2.800374580064198e-04 -1.673197648302594e-02)
"freq" 1.778279410038914e+03
"in" (1.000000000000000e+00 0.000000000000000e+00)
"out" (2.224544721178286e-04 -1.491324867779195e-02)
"freq" 1.995262314968869e+03
"in" (1.000000000000000e+00 0.000000000000000e+00)
"out" (1.767099530843784e-04 -1.329205502083329e-02)
"freq" 2.238721138568328e+03
"in" (1.000000000000000e+00 0.000000000000000e+00)
"out" (1.403708067631369e-04 -1.184698707687932e-02)
"freq" 2.511886431509567e+03
"in" (1.000000000000000e+00 0.000000000000000e+00)
"out" (1.115037142899641e-04 -1.055894318630722e-02)
"freq" 2.818382931264438e+03
"in" (1.000000000000000e+00 0.000000000000000e+00)
"out" (8.857257978680126e-05 -9.410883841856257e-03)
"freq" 3.162277660168362e+03
"in" (1.000000000000000e+00 0.000000000000000e+00)
"out" (7.035698263165356e-05 -8.387611848830901e-03)
"freq" 3.548133892335735e+03
"in" (1.000000000000000e+00 0.000000000000000e+00)
"out" (5.588734652909226e-05 -7.475575103869280e-03)
"freq" 3.981071705534950e+03
"in" (1.000000000000000e+00 0.000000000000000e+00)
"out" (4.439340758964719e-05 -6.662689908363571e-03)
"freq" 4.466835921509605e+03
"in" (1.000000000000000e+00 0.000000000000000e+00)
"out" (3.526325905422670e-05 -5.938182849726638e-03)
"freq" 5.011872336272693e+03
"in" (1.000000000000000e+00 0.000000000000000e+00)
"out" (2.801080546792599e-05 -5.292449419947537e-03)
"freq" 5.623413251903457e+03
"in" (1.000000000000000e+00 0.000000000000000e+00)
"out" (2.224990184293513e-05 -4.716927684924065e-03)
"freq" 6.309573444801895e+03
"in" (1.000000000000000e+00 0.000000000000000e+00)
"out" (1.767380613214506e-05 -4.203985462477465e-03)
"freq" 7.079457843841336e+03
"in" (1.000000000000000e+00 0.000000000000000e+00)
"out" (1.403885425708200e-05 -3.746819607033831e-03)
"freq" 7.943282347242766e+03
"in" (1.000000000000000e+00 0.000000000000000e+00)
"out" (1.115149051834783e-05 -3.339366131859016e-03)
"freq" 8.912509381337401e+03
"in" (1.000000000000000e+00 0.000000000000000e+00)
"out" (8.857964094138470e-06 -2.976220023891140e-03)
"freq" 9.999999999999938e+03
"in" (1.000000000000000e+00 0.000000000000000e+00)
"out" (7.036143800827839e-06 -2.652563720913836e-03)
"freq" 1.122018454301956e+04
"in" (1.000000000000000e+00 0.000000000000000e+00)
"out" (5.589015772644353e-06 -2.364103325903300e-03)
"freq" 1.258925411794159e+04
"in" (1.000000000000000e+00 0.000000000000000e+00)
"out" (4.439518135769018e-06 -2.107011729072180e-03)
"freq" 1.412537544622745e+04
"in" (1.000000000000000e+00 0.000000000000000e+00)
"out" (3.526437823744140e-06 -1.877877894853767e-03)
"freq" 1.584893192461103e+04
"in" (1.000000000000000e+00 0.000000000000000e+00)
"out" (2.801151163042883e-06 -1.673661649376912e-03)
"freq" 1.778279410038911e+04
"in" (1.000000000000000e+00 0.000000000000000e+00)
"out" (2.225034740417628e-06 -1.491653374493563e-03)
"freq" 1.995262314968866e+04
"in" (1.000000000000000e+00 0.000000000000000e+00)
"out" (1.767408726369776e-06 -1.329438077774279e-03)
"freq" 2.238721138568325e+04
"in" (1.000000000000000e+00 0.000000000000000e+00)
"out" (1.403903163980921e-06 -1.184863364712078e-03)
"freq" 2.511886431509563e+04
"in" (1.000000000000000e+00 0.000000000000000e+00)
"out" (1.115160243963783e-06 -1.056010890275954e-03)
"freq" 2.818382931264435e+04
"in" (1.000000000000000e+00 0.000000000000000e+00)
"out" (8.858034711876560e-07 -9.411709125020101e-04)
"freq" 3.162277660168357e+04
"in" (1.000000000000000e+00 0.000000000000000e+00)
"out" (7.036188357697632e-07 -8.388196115317625e-04)
"freq" 3.548133892335730e+04
"in" (1.000000000000000e+00 0.000000000000000e+00)
"out" (5.589043886173351e-07 -7.475988738910857e-04)
"freq" 3.981071705534944e+04
"in" (1.000000000000000e+00 0.000000000000000e+00)
"out" (4.439535874229049e-07 -6.662982742947165e-04)
"freq" 4.466835921509599e+04
"in" (1.000000000000000e+00 0.000000000000000e+00)
"out" (3.526449015967020e-07 -5.938390162647411e-04)
"freq" 5.011872336272686e+04
"in" (1.000000000000000e+00 0.000000000000000e+00)
"out" (2.801158224863748e-07 -5.292596187330946e-04)
"freq" 5.623413251903449e+04
"in" (1.000000000000000e+00 0.000000000000000e+00)
"out" (2.225039196128193e-07 -4.717031588879017e-04)
"freq" 6.309573444801885e+04
"in" (1.000000000000000e+00 0.000000000000000e+00)
"out" (1.767411537734497e-07 -4.204059021184339e-04)
"freq" 7.079457843841326e+04
"in" (1.000000000000000e+00 0.000000000000000e+00)
"out" (1.403904937832849e-07 -3.746871682801456e-04)
"freq" 7.943282347242754e+04
"in" (1.000000000000000e+00 0.000000000000000e+00)
"out" (1.115161363189041e-07 -3.339402998786691e-04)
"freq" 8.912509381337385e+04
"in" (1.000000000000000e+00 0.000000000000000e+00)
"out" (8.858041773712315e-08 -2.976246123737631e-04)
"freq" 9.999999999999920e+04
"in" (1.000000000000000e+00 0.000000000000000e+00)
"out" (7.036192813415665e-08 -2.652582198224132e-04)
"freq" 1.122018454301954e+05
"in" (1.000000000000000e+00 0.000000000000000e+00)
"out" (5.589046697541818e-08 -2.364116406856352e-04)
"freq" 1.258925411794157e+05
"in" (1.000000000000000e+00 0.000000000000000e+00)
"out" (4.439537648082858e-08 -2.107020989688502e-04)
"freq" 1.412537544622743e+05
"in" (1.000000000000000e+00 0.000000000000000e+00)
"out" (3.526450135193224e-08 -1.877884450874099e-04)
"freq" 1.584893192461100e+05
"in" (1.000000000000000e+00 0.000000000000000e+00)
"out" (2.801158931047797e-08 -1.673666290687269e-04)
"freq" 1.778279410038908e+05
"in" (1.000000000000000e+00 0.000000000000000e+00)
"out" (2.225039641700236e-08 -1.491656660291577e-04)
"freq" 1.995262314968862e+05
"in" (1.000000000000000e+00 0.000000000000000e+00)
"out" (1.767411818871464e-08 -1.329440403942207e-04)
"freq" 2.238721138568320e+05
"in" (1.000000000000000e+00 0.000000000000000e+00)
"out" (1.403905115218291e-08 -1.184865011513462e-04)
"freq" 2.511886431509558e+05
"in" (1.000000000000000e+00 0.000000000000000e+00)
"out" (1.115161475111693e-08 -1.056012056122392e-04)
"freq" 2.818382931264429e+05
"in" (1.000000000000000e+00 0.000000000000000e+00)
"out" (8.858042479896528e-09 -9.411717378582728e-05)
"freq" 3.162277660168351e+05
"in" (1.000000000000000e+00 0.000000000000000e+00)
"out" (7.036193258987789e-09 -8.388201958393570e-05)
"freq" 3.548133892335723e+05
"in" (1.000000000000000e+00 0.000000000000000e+00)
"out" (5.589046978678827e-09 -7.475992875492446e-05)
"freq" 3.981071705534937e+05
"in" (1.000000000000000e+00 0.000000000000000e+00)
"out" (4.439537825468323e-09 -6.662985671423005e-05)
"freq" 4.466835921509591e+05
"in" (1.000000000000000e+00 0.000000000000000e+00)
"out" (3.526450247115887e-09 -5.938392235849730e-05)
"freq" 5.011872336272677e+05
"in" (1.000000000000000e+00 0.000000000000000e+00)
"out" (2.801159001666224e-09 -5.292597655045897e-05)
"freq" 5.623413251903439e+05
"in" (1.000000000000000e+00 0.000000000000000e+00)
"out" (2.225039686257452e-09 -4.717032627941692e-05)
"freq" 6.309573444801874e+05
"in" (1.000000000000000e+00 0.000000000000000e+00)
"out" (1.767411846985168e-09 -4.204059756784416e-05)
"freq" 7.079457843841313e+05
"in" (1.000000000000000e+00 0.000000000000000e+00)
"out" (1.403905132956840e-09 -3.746872203566449e-05)
"freq" 7.943282347242740e+05
"in" (1.000000000000000e+00 0.000000000000000e+00)
"out" (1.115161486303960e-09 -3.339403367460084e-05)
"freq" 8.912509381337371e+05
"in" (1.000000000000000e+00 0.000000000000000e+00)
"out" (8.858042550514961e-10 -2.976246384738412e-05)
"freq" 1.000000000000000e+06
"in" (1.000000000000000e+00 0.000000000000000e+00)
"out" (7.036193303544878e-10 -2.652582382998514e-05)
END
