HEADER
"PSFversion" "1.00"
"simulator" "spectre"
"version" "23.1.0.242.isr1"
"date" "5:46:18 PM, Tue Apr 15, 2025"
"design" "#RC Low-Pass Filter"
"analysis type" "ac"
"analysis name" "mysweep-000_mynestedsweep-001_ac2"
"analysis description" "AC Analysis `mysweep-000_mynestedsweep-001_ac2': freq = (1 Hz -> 1 MHz)"
"xVecSorted" "ascending"
"tolerance.relative" 1.000000000000000e-03
"start" 1.000000000000000e+00
"stop" 1.000000000000000e+06
"operating point producer" "mysweep-000_mynestedsweep-001_ac2"
TYPE
"sweep" FLOAT DOUBLE PROP(
"key" "sweep"
)
"V" COMPLEX DOUBLE PROP(
"units" "V"
"key" "node"
"tolerance" 1.000000000000000e-06
)
"I" COMPLEX DOUBLE PROP(
"units" "A"
"key" "branch"
"tolerance" 1.000000000000000e-12
)
"MMF" COMPLEX DOUBLE PROP(
"units" "A*turn"
"key" "node"
"tolerance" 1.000000000000000e-12
)
"Wb" COMPLEX DOUBLE PROP(
"units" "Wb"
"key" "node"
"tolerance" 1.000000000000000e-09
)
"Temp" COMPLEX DOUBLE PROP(
"units" "C"
"key" "node"
"tolerance" 1.000000000000000e-04
)
"Pwr" COMPLEX DOUBLE PROP(
"units" "W"
"key" "node"
"tolerance" 1.000000000000000e-09
)
"U" COMPLEX DOUBLE PROP(
"units" ""
"key" "node"
"tolerance" 1.000000000000000e-06
)
"V/Sec" COMPLEX DOUBLE PROP(
"units" "V/s"
"key" "node"
"tolerance" 9.999999999999999e-05
)
"I/Sec" COMPLEX DOUBLE PROP(
"units" "A/s"
"key" "node"
"tolerance" 1.000000000000000e-06
)
"1/Sec" COMPLEX DOUBLE PROP(
"units" "1/s"
"key" "node"
"tolerance" 9.999999999999999e-05
)
"HOD" COMPLEX DOUBLE PROP(
"units" ""
"key" "node"
"tolerance" 1.000000000000000e-02
)
"Q" COMPLEX DOUBLE PROP(
"units" "Coul"
"key" "node"
"tolerance" 1.000000000000000e-15
)
SWEEP
"freq" "sweep" PROP(
"sweep_direction" 0
"units" "Hz"
"plot" 0
"grid" 3
)
TRACE
"in" "V"
"out" "V"
VALUE
"freq" 1.000000000000000e+00
"in" (1.000000000000000e+00 0.000000000000000e+00)
"out" (9.998421112623725e-01 -1.256438652596631e-02)
"freq" 1.122018454301963e+00
"in" (1.000000000000000e+00 0.000000000000000e+00)
"out" (9.998012379816357e-01 -1.409689724813165e-02)
"freq" 1.258925411794167e+00
"in" (1.000000000000000e+00 0.000000000000000e+00)
"out" (9.997497863213129e-01 -1.581616488919195e-02)
"freq" 1.412537544622754e+00
"in" (1.000000000000000e+00 0.000000000000000e+00)
"out" (9.996850200480275e-01 -1.774487925014624e-02)
"freq" 1.584893192461113e+00
"in" (1.000000000000000e+00 0.000000000000000e+00)
"out" (9.996034960716551e-01 -1.990845832755000e-02)
"freq" 1.778279410038922e+00
"in" (1.000000000000000e+00 0.000000000000000e+00)
"out" (9.995008823706133e-01 -2.233536458128276e-02)
"freq" 1.995262314968879e+00
"in" (1.000000000000000e+00 0.000000000000000e+00)
"out" (9.993717293269720e-01 -2.505745296292876e-02)
"freq" 2.238721138568339e+00
"in" (1.000000000000000e+00 0.000000000000000e+00)
"out" (9.992091827306313e-01 -2.811035178390975e-02)
"freq" 2.511886431509579e+00
"in" (1.000000000000000e+00 0.000000000000000e+00)
"out" (9.990046238593994e-01 -3.153387649717982e-02)
"freq" 2.818382931264452e+00
"in" (1.000000000000000e+00 0.000000000000000e+00)
"out" (9.987472185593812e-01 -3.537247488204402e-02)
"freq" 3.162277660168377e+00
"in" (1.000000000000000e+00 0.000000000000000e+00)
"out" (9.984233530369147e-01 -3.967569970950928e-02)
"freq" 3.548133892335751e+00
"in" (1.000000000000000e+00 0.000000000000000e+00)
"out" (9.980159290378979e-01 -4.449870138014759e-02)
"freq" 3.981071705534969e+00
"in" (1.000000000000000e+00 0.000000000000000e+00)
"out" (9.975034851725588e-01 -4.990272779275325e-02)
"freq" 4.466835921509626e+00
"in" (1.000000000000000e+00 0.000000000000000e+00)
"out" (9.968591043527171e-01 -5.595561117364227e-02)
"freq" 5.011872336272718e+00
"in" (1.000000000000000e+00 0.000000000000000e+00)
"out" (9.960490597863884e-01 -6.273221090508575e-02)
"freq" 5.623413251903484e+00
"in" (1.000000000000000e+00 0.000000000000000e+00)
"out" (9.950311440983377e-01 -7.031476639149657e-02)
"freq" 6.309573444801925e+00
"in" (1.000000000000000e+00 0.000000000000000e+00)
"out" (9.937526186878748e-01 -7.879309321803506e-02)
"freq" 7.079457843841370e+00
"in" (1.000000000000000e+00 0.000000000000000e+00)
"out" (9.921477148108971e-01 -8.826452745249322e-02)
"freq" 7.943282347242804e+00
"in" (1.000000000000000e+00 0.000000000000000e+00)
"out" (9.901346165001758e-01 -9.883348475200926e-02)
"freq" 8.912509381337442e+00
"in" (1.000000000000000e+00 0.000000000000000e+00)
"out" (9.876118622552661e-01 -1.106104506271968e-01)
"freq" 9.999999999999984e+00
"in" (1.000000000000000e+00 0.000000000000000e+00)
"out" (9.844541235984988e-01 -1.237101536997287e-01)
"freq" 1.122018454301961e+01
"in" (1.000000000000000e+00 0.000000000000000e+00)
"out" (9.805073633481792e-01 -1.382485940911550e-01)
"freq" 1.258925411794165e+01
"in" (1.000000000000000e+00 0.000000000000000e+00)
"out" (9.755834580565571e-01 -1.543385059632458e-01)
"freq" 1.412537544622752e+01
"in" (1.000000000000000e+00 0.000000000000000e+00)
"out" (9.694545054257421e-01 -1.720827339841857e-01)
"freq" 1.584893192461110e+01
"in" (1.000000000000000e+00 0.000000000000000e+00)
"out" (9.618472509386211e-01 -1.915649153692773e-01)
"freq" 1.778279410038919e+01
"in" (1.000000000000000e+00 0.000000000000000e+00)
"out" (9.524383824020265e-01 -2.128368157284770e-01)
"freq" 1.995262314968875e+01
"in" (1.000000000000000e+00 0.000000000000000e+00)
"out" (9.408518749012519e-01 -2.359017261404649e-01)
"freq" 2.238721138568335e+01
"in" (1.000000000000000e+00 0.000000000000000e+00)
"out" (9.266601190570602e-01 -2.606935802934457e-01)
"freq" 2.511886431509575e+01
"in" (1.000000000000000e+00 0.000000000000000e+00)
"out" (9.093911816731042e-01 -2.870520168337080e-01)
"freq" 2.818382931264447e+01
"in" (1.000000000000000e+00 0.000000000000000e+00)
"out" (8.885450913939107e-01 -3.146946328644606e-01)
"freq" 3.162277660168372e+01
"in" (1.000000000000000e+00 0.000000000000000e+00)
"out" (8.636222419236997e-01 -3.431892556278275e-01)
"freq" 3.548133892335746e+01
"in" (1.000000000000000e+00 0.000000000000000e+00)
"out" (8.341664344272598e-01 -3.719311685005330e-01)
"freq" 3.981071705534962e+01
"in" (1.000000000000000e+00 0.000000000000000e+00)
"out" (7.998232062843347e-01 -4.001325342600640e-01)
"freq" 4.466835921509619e+01
"in" (1.000000000000000e+00 0.000000000000000e+00)
"out" (7.604104782008934e-01 -4.268329683180319e-01)
"freq" 5.011872336272709e+01
"in" (1.000000000000000e+00 0.000000000000000e+00)
"out" (7.159932528038351e-01 -4.509400345314425e-01)
"freq" 5.623413251903474e+01
"in" (1.000000000000000e+00 0.000000000000000e+00)
"out" (6.669481756224414e-01 -4.713048977640042e-01)
"freq" 6.309573444801914e+01
"in" (1.000000000000000e+00 0.000000000000000e+00)
"out" (6.139995664164547e-01 -4.868306675394026e-01)
"freq" 7.079457843841358e+01
"in" (1.000000000000000e+00 0.000000000000000e+00)
"out" (5.582091714671440e-01 -4.966001332632812e-01)
"freq" 7.943282347242791e+01
"in" (1.000000000000000e+00 0.000000000000000e+00)
"out" (5.009096766583886e-01 -4.999991724876924e-01)
"freq" 8.912509381337428e+01
"in" (1.000000000000000e+00 0.000000000000000e+00)
"out" (4.435862783660653e-01 -4.968072986696240e-01)
"freq" 9.999999999999969e+01
"in" (1.000000000000000e+00 0.000000000000000e+00)
"out" (3.877266367391530e-01 -4.872316614323191e-01)
"freq" 1.122018454301960e+02
"in" (1.000000000000000e+00 0.000000000000000e+00)
"out" (3.346703048804665e-01 -4.718750808335635e-01)
"freq" 1.258925411794163e+02
"in" (1.000000000000000e+00 0.000000000000000e+00)
"out" (2.854889115982754e-01 -4.516469782393186e-01)
"freq" 1.412537544622750e+02
"in" (1.000000000000000e+00 0.000000000000000e+00)
"out" (2.409178803936256e-01 -4.276405678841383e-01)
"freq" 1.584893192461108e+02
"in" (1.000000000000000e+00 0.000000000000000e+00)
"out" (2.013444955586506e-01 -4.010048499293782e-01)
"freq" 1.778279410038917e+02
"in" (1.000000000000000e+00 0.000000000000000e+00)
"out" (1.668427212761619e-01 -3.728353894593790e-01)
"freq" 1.995262314968873e+02
"in" (1.000000000000000e+00 0.000000000000000e+00)
"out" (1.372371548686870e-01 -3.440975416829290e-01)
"freq" 2.238721138568332e+02
"in" (1.000000000000000e+00 0.000000000000000e+00)
"out" (1.121776518166424e-01 -3.155848954711656e-01)
"freq" 2.511886431509571e+02
"in" (1.000000000000000e+00 0.000000000000000e+00)
"out" (9.121025877256146e-02 -2.879078801755934e-01)
"freq" 2.818382931264443e+02
"in" (1.000000000000000e+00 0.000000000000000e+00)
"out" (7.383600106712583e-02 -2.615038164416367e-01)
"freq" 3.162277660168368e+02
"in" (1.000000000000000e+00 0.000000000000000e+00)
"out" (5.955441254509109e-02 -2.366594272187360e-01)
"freq" 3.548133892335741e+02
"in" (1.000000000000000e+00 0.000000000000000e+00)
"out" (4.789236878428162e-02 -2.135384972235966e-01)
"freq" 3.981071705534957e+02
"in" (1.000000000000000e+00 0.000000000000000e+00)
"out" (3.842070888634460e-02 -1.922096720121424e-01)
"freq" 4.466835921509614e+02
"in" (1.000000000000000e+00 0.000000000000000e+00)
"out" (3.076173478733964e-02 -1.726715102737363e-01)
"freq" 5.011872336272703e+02
"in" (1.000000000000000e+00 0.000000000000000e+00)
"out" (2.459049412803808e-02 -1.548735023384472e-01)
"freq" 5.623413251903468e+02
"in" (1.000000000000000e+00 0.000000000000000e+00)
"out" (1.963221510045052e-02 -1.387328051713082e-01)
"freq" 6.309573444801906e+02
"in" (1.000000000000000e+00 0.000000000000000e+00)
"out" (1.565764508378709e-02 -1.241470226554678e-01)
"freq" 7.079457843841349e+02
"in" (1.000000000000000e+00 0.000000000000000e+00)
"out" (1.247749128754358e-02 -1.110036193045653e-01)
"freq" 7.943282347242780e+02
"in" (1.000000000000000e+00 0.000000000000000e+00)
"out" (9.936723921461351e-03 -9.918661925466564e-02)
"freq" 8.912509381337416e+02
"in" (1.000000000000000e+00 0.000000000000000e+00)
"out" (7.909184399712112e-03 -8.858120117634137e-02)
"freq" 9.999999999999955e+02
"in" (1.000000000000000e+00 0.000000000000000e+00)
"out" (6.292724832125764e-03 -7.907671241467308e-02)
"freq" 1.122018454301958e+03
"in" (1.000000000000000e+00 0.000000000000000e+00)
"out" (5.004966614601741e-03 -7.056852643911776e-02)
"freq" 1.258925411794161e+03
"in" (1.000000000000000e+00 0.000000000000000e+00)
"out" (3.979682903085952e-03 -6.295907422347344e-02)
"freq" 1.412537544622747e+03
"in" (1.000000000000000e+00 0.000000000000000e+00)
"out" (3.163764062656614e-03 -5.615830000643232e-02)
"freq" 1.584893192461106e+03
"in" (1.000000000000000e+00 0.000000000000000e+00)
"out" (2.514703432802083e-03 -5.008372689254601e-02)
"freq" 1.778279410038914e+03
"in" (1.000000000000000e+00 0.000000000000000e+00)
"out" (1.998533587187278e-03 -4.466026702437148e-02)
"freq" 1.995262314968869e+03
"in" (1.000000000000000e+00 0.000000000000000e+00)
"out" (1.588144450308964e-03 -3.981987252006110e-02)
"freq" 2.238721138568328e+03
"in" (1.000000000000000e+00 0.000000000000000e+00)
"out" (1.261920166853098e-03 -3.550109469221460e-02)
"freq" 2.511886431509567e+03
"in" (1.000000000000000e+00 0.000000000000000e+00)
"out" (1.002639044788988e-03 -3.164859806902753e-02)
"freq" 2.818382931264438e+03
"in" (1.000000000000000e+00 0.000000000000000e+00)
"out" (7.965887707016095e-04 -2.821266058052664e-02)
"freq" 3.162277660168362e+03
"in" (1.000000000000000e+00 0.000000000000000e+00)
"out" (6.328566366177555e-04 -2.514868046429562e-02)
"freq" 3.548133892335735e+03
"in" (1.000000000000000e+00 0.000000000000000e+00)
"out" (5.027613347863214e-04 -2.241670283129446e-02)
"freq" 3.981071705534950e+03
"in" (1.000000000000000e+00 0.000000000000000e+00)
"out" (3.993988229089349e-04 -1.998097353707256e-02)
"freq" 4.466835921509605e+03
"in" (1.000000000000000e+00 0.000000000000000e+00)
"out" (3.172798249227688e-04 -1.780952437420679e-02)
"freq" 5.011872336272693e+03
"in" (1.000000000000000e+00 0.000000000000000e+00)
"out" (2.520407702914410e-04 -1.587379115843320e-02)
"freq" 5.623413251903457e+03
"in" (1.000000000000000e+00 0.000000000000000e+00)
"out" (2.002134787444186e-04 -1.414826467477011e-02)
"freq" 6.309573444801895e+03
"in" (1.000000000000000e+00 0.000000000000000e+00)
"out" (1.590417682022806e-04 -1.261017342934853e-02)
"freq" 7.079457843841336e+03
"in" (1.000000000000000e+00 0.000000000000000e+00)
"out" (1.263354994684217e-04 -1.123919653756423e-02)
"freq" 7.943282347242766e+03
"in" (1.000000000000000e+00 0.000000000000000e+00)
"out" (1.003544618504921e-04 -1.001720474146749e-02)
"freq" 8.912509381337401e+03
"in" (1.000000000000000e+00 0.000000000000000e+00)
"out" (7.971602787354518e-05 -8.928027398504399e-03)
"freq" 9.999999999999938e+03
"in" (1.000000000000000e+00 0.000000000000000e+00)
"out" (6.332172988107328e-05 -7.957243256279034e-03)
"freq" 1.122018454301956e+04
"in" (1.000000000000000e+00 0.000000000000000e+00)
"out" (5.029889298334933e-05 -7.091992879629391e-03)
"freq" 1.258925411794159e+04
"in" (1.000000000000000e+00 0.000000000000000e+00)
"out" (3.995424420118730e-05 -6.320810696386786e-03)
"freq" 1.412537544622745e+04
"in" (1.000000000000000e+00 0.000000000000000e+00)
"out" (3.173704506396825e-05 -5.633474755773638e-03)
"freq" 1.584893192461103e+04
"in" (1.000000000000000e+00 0.000000000000000e+00)
"out" (2.520979553580127e-05 -5.020872434349464e-03)
"freq" 1.778279410038911e+04
"in" (1.000000000000000e+00 0.000000000000000e+00)
"out" (2.002495621397265e-05 -4.474880469364660e-03)
"freq" 1.995262314968866e+04
"in" (1.000000000000000e+00 0.000000000000000e+00)
"out" (1.590645363168835e-05 -3.988257842269129e-03)
"freq" 2.238721138568325e+04
"in" (1.000000000000000e+00 0.000000000000000e+00)
"out" (1.263498656944731e-05 -3.554550172182368e-03)
"freq" 2.511886431509563e+04
"in" (1.000000000000000e+00 0.000000000000000e+00)
"out" (1.003635265854221e-05 -3.168004408167313e-03)
"freq" 2.818382931264435e+04
"in" (1.000000000000000e+00 0.000000000000000e+00)
"out" (7.972174746448400e-06 -2.823492729028749e-03)
"freq" 3.162277660168357e+04
"in" (1.000000000000000e+00 0.000000000000000e+00)
"out" (6.332533876406961e-06 -2.516444669652338e-03)
"freq" 3.548133892335730e+04
"in" (1.000000000000000e+00 0.000000000000000e+00)
"out" (5.030117006720254e-06 -2.242786593647098e-03)
"freq" 3.981071705534944e+04
"in" (1.000000000000000e+00 0.000000000000000e+00)
"out" (3.995568096031825e-06 -1.998887723577143e-03)
"freq" 4.466835921509599e+04
"in" (1.000000000000000e+00 0.000000000000000e+00)
"out" (3.173795160588861e-06 -1.781512022865167e-03)
"freq" 5.011872336272686e+04
"in" (1.000000000000000e+00 0.000000000000000e+00)
"out" (2.521036752919105e-06 -1.587775298111416e-03)
"freq" 5.623413251903449e+04
"in" (1.000000000000000e+00 0.000000000000000e+00)
"out" (2.002531711946133e-06 -1.415106957728947e-03)
"freq" 6.309573444801885e+04
"in" (1.000000000000000e+00 0.000000000000000e+00)
"out" (1.590668134868876e-06 -1.261215923085243e-03)
"freq" 7.079457843841326e+04
"in" (1.000000000000000e+00 0.000000000000000e+00)
"out" (1.263513024967824e-06 -1.124060242381457e-03)
"freq" 7.943282347242754e+04
"in" (1.000000000000000e+00 0.000000000000000e+00)
"out" (1.003644331489832e-06 -1.001820005883236e-03)
"freq" 8.912509381337385e+04
"in" (1.000000000000000e+00 0.000000000000000e+00)
"out" (7.972231946871998e-07 -8.928732043926381e-04)
"freq" 9.999999999999920e+04
"in" (1.000000000000000e+00 0.000000000000000e+00)
"out" (6.332569967499435e-07 -7.957742115295767e-04)
"freq" 1.122018454301954e+05
"in" (1.000000000000000e+00 0.000000000000000e+00)
"out" (5.030139778692746e-07 -7.092346049412795e-04)
"freq" 1.258925411794157e+05
"in" (1.000000000000000e+00 0.000000000000000e+00)
"out" (3.995582464191471e-07 -6.321060724058540e-04)
"freq" 1.412537544622743e+05
"in" (1.000000000000000e+00 0.000000000000000e+00)
"out" (3.173804226292914e-07 -5.633651763278936e-04)
"freq" 1.584893192461100e+05
"in" (1.000000000000000e+00 0.000000000000000e+00)
"out" (2.521042472995766e-07 -5.020997746892794e-04)
"freq" 1.778279410038908e+05
"in" (1.000000000000000e+00 0.000000000000000e+00)
"out" (2.002535321072575e-07 -4.474969184316026e-04)
"freq" 1.995262314968862e+05
"in" (1.000000000000000e+00 0.000000000000000e+00)
"out" (1.590670412074743e-07 -3.988320647906218e-04)
"freq" 2.238721138568320e+05
"in" (1.000000000000000e+00 0.000000000000000e+00)
"out" (1.263514461788109e-07 -3.554594635315298e-04)
"freq" 2.511886431509558e+05
"in" (1.000000000000000e+00 0.000000000000000e+00)
"out" (1.003645238062403e-07 -3.168035885737450e-04)
"freq" 2.818382931264429e+05
"in" (1.000000000000000e+00 0.000000000000000e+00)
"out" (7.972237666959515e-08 -2.823515013488290e-04)
"freq" 3.162277660168351e+05
"in" (1.000000000000000e+00 0.000000000000000e+00)
"out" (6.332573576631317e-08 -2.516460445867655e-04)
"freq" 3.548133892335723e+05
"in" (1.000000000000000e+00 0.000000000000000e+00)
"out" (5.030142055901343e-08 -2.242797762366917e-04)
"freq" 3.981071705534937e+05
"in" (1.000000000000000e+00 0.000000000000000e+00)
"out" (3.995583901013125e-08 -1.998895630433520e-04)
"freq" 4.466835921509591e+05
"in" (1.000000000000000e+00 0.000000000000000e+00)
"out" (3.173805132866170e-08 -1.781517620495453e-04)
"freq" 5.011872336272677e+05
"in" (1.000000000000000e+00 0.000000000000000e+00)
"out" (2.521043045004863e-08 -1.587779260932792e-04)
"freq" 5.623413251903439e+05
"in" (1.000000000000000e+00 0.000000000000000e+00)
"out" (2.002535681985936e-08 -1.415109763193105e-04)
"freq" 6.309573444801874e+05
"in" (1.000000000000000e+00 0.000000000000000e+00)
"out" (1.590670639795690e-08 -1.261217909202593e-04)
"freq" 7.079457843841313e+05
"in" (1.000000000000000e+00 0.000000000000000e+00)
"out" (1.263514605470318e-08 -1.124061648445327e-04)
"freq" 7.943282347242740e+05
"in" (1.000000000000000e+00 0.000000000000000e+00)
"out" (1.003645328719751e-08 -1.001821001300488e-04)
"freq" 8.912509381337371e+05
"in" (1.000000000000000e+00 0.000000000000000e+00)
"out" (7.972238238968724e-09 -8.928739090942316e-05)
"freq" 1.000000000000000e+06
"in" (1.000000000000000e+00 0.000000000000000e+00)
"out" (6.332573937544621e-09 -7.957747104201746e-05)
END
