HEADER
"PSFversion" "1.00"
"simulator" "spectre"
"version" "23.1.0.242.isr1"
"date" "5:46:18 PM, Tue Apr 15, 2025"
"design" "#RC Low-Pass Filter"
"analysis type" "ac"
"analysis name" "mysweep-001_mynestedsweep-001_ac2"
"analysis description" "AC Analysis `mysweep-001_mynestedsweep-001_ac2': freq = (1 Hz -> 1 MHz)"
"xVecSorted" "ascending"
"tolerance.relative" 1.000000000000000e-03
"start" 1.000000000000000e+00
"stop" 1.000000000000000e+06
"operating point producer" "mysweep-001_mynestedsweep-001_ac2"
TYPE
"sweep" FLOAT DOUBLE PROP(
"key" "sweep"
)
"V" COMPLEX DOUBLE PROP(
"units" "V"
"key" "node"
"tolerance" 1.000000000000000e-06
)
"I" COMPLEX DOUBLE PROP(
"units" "A"
"key" "branch"
"tolerance" 1.000000000000000e-12
)
"MMF" COMPLEX DOUBLE PROP(
"units" "A*turn"
"key" "node"
"tolerance" 1.000000000000000e-12
)
"Wb" COMPLEX DOUBLE PROP(
"units" "Wb"
"key" "node"
"tolerance" 1.000000000000000e-09
)
"Temp" COMPLEX DOUBLE PROP(
"units" "C"
"key" "node"
"tolerance" 1.000000000000000e-04
)
"Pwr" COMPLEX DOUBLE PROP(
"units" "W"
"key" "node"
"tolerance" 1.000000000000000e-09
)
"U" COMPLEX DOUBLE PROP(
"units" ""
"key" "node"
"tolerance" 1.000000000000000e-06
)
"V/Sec" COMPLEX DOUBLE PROP(
"units" "V/s"
"key" "node"
"tolerance" 9.999999999999999e-05
)
"I/Sec" COMPLEX DOUBLE PROP(
"units" "A/s"
"key" "node"
"tolerance" 1.000000000000000e-06
)
"1/Sec" COMPLEX DOUBLE PROP(
"units" "1/s"
"key" "node"
"tolerance" 9.999999999999999e-05
)
"HOD" COMPLEX DOUBLE PROP(
"units" ""
"key" "node"
"tolerance" 1.000000000000000e-02
)
"Q" COMPLEX DOUBLE PROP(
"units" "Coul"
"key" "node"
"tolerance" 1.000000000000000e-15
)
SWEEP
"freq" "sweep" PROP(
"sweep_direction" 0
"units" "Hz"
"plot" 0
"grid" 3
)
TRACE
"in" "V"
"out" "V"
VALUE
"freq" 1.000000000000000e+00
"in" (1.000000000000000e+00 0.000000000000000e+00)
"out" (9.993687440541039e-01 -2.511687603638105e-02)
"freq" 1.122018454301963e+00
"in" (1.000000000000000e+00 0.000000000000000e+00)
"out" (9.992054257201056e-01 -2.817699294829378e-02)
"freq" 1.258925411794167e+00
"in" (1.000000000000000e+00 0.000000000000000e+00)
"out" (9.989998960043510e-01 -3.160860306383162e-02)
"freq" 1.412537544622754e+00
"in" (1.000000000000000e+00 0.000000000000000e+00)
"out" (9.987412696166175e-01 -3.545625447230005e-02)
"freq" 1.584893192461113e+00
"in" (1.000000000000000e+00 0.000000000000000e+00)
"out" (9.984158686295543e-01 -3.976961023503917e-02)
"freq" 1.778279410038922e+00
"in" (1.000000000000000e+00 0.000000000000000e+00)
"out" (9.980065144338228e-01 -4.460394132220337e-02)
"freq" 1.995262314968879e+00
"in" (1.000000000000000e+00 0.000000000000000e+00)
"out" (9.974916450853794e-01 -5.002062644792636e-02)
"freq" 2.238721138568339e+00
"in" (1.000000000000000e+00 0.000000000000000e+00)
"out" (9.968442178635609e-01 -5.608763834880648e-02)
"freq" 2.511886431509579e+00
"in" (1.000000000000000e+00 0.000000000000000e+00)
"out" (9.960303493243046e-01 -6.287998528314315e-02)
"freq" 2.818382931264452e+00
"in" (1.000000000000000e+00 0.000000000000000e+00)
"out" (9.950076372556975e-01 -7.048006142542571e-02)
"freq" 3.162277660168377e+00
"in" (1.000000000000000e+00 0.000000000000000e+00)
"out" (9.937231015065008e-01 -7.897783890941584e-02)
"freq" 3.548133892335751e+00
"in" (1.000000000000000e+00 0.000000000000000e+00)
"out" (9.921106750929670e-01 -8.847080569060163e-02)
"freq" 3.981071705534969e+00
"in" (1.000000000000000e+00 0.000000000000000e+00)
"out" (9.900881757389391e-01 -9.906351498346250e-02)
"freq" 4.466835921509626e+00
"in" (1.000000000000000e+00 0.000000000000000e+00)
"out" (9.875536950460322e-01 -1.108665614464553e-01)
"freq" 5.011872336272718e+00
"in" (1.000000000000000e+00 0.000000000000000e+00)
"out" (9.843813640362856e-01 -1.239947344621833e-01)
"freq" 5.623413251903484e+00
"in" (1.000000000000000e+00 0.000000000000000e+00)
"out" (9.804164991743098e-01 -1.385640188544640e-01)
"freq" 6.309573444801925e+00
"in" (1.000000000000000e+00 0.000000000000000e+00)
"out" (9.754702155032657e-01 -1.546870200413659e-01)
"freq" 7.079457843841370e+00
"in" (1.000000000000000e+00 0.000000000000000e+00)
"out" (9.693137312445597e-01 -1.724662913885177e-01)
"freq" 7.943282347242804e+00
"in" (1.000000000000000e+00 0.000000000000000e+00)
"out" (9.616728034772142e-01 -1.919849539143355e-01)
"freq" 8.912509381337442e+00
"in" (1.000000000000000e+00 0.000000000000000e+00)
"out" (9.522230512861352e-01 -2.132939565141439e-01)
"freq" 9.999999999999984e+00
"in" (1.000000000000000e+00 0.000000000000000e+00)
"out" (9.405873591098883e-01 -2.363953869951236e-01)
"freq" 1.122018454301961e+01
"in" (1.000000000000000e+00 0.000000000000000e+00)
"out" (9.263371055041062e-01 -2.612215007811964e-01)
"freq" 1.258925411794165e+01
"in" (1.000000000000000e+00 0.000000000000000e+00)
"out" (9.089995790138656e-01 -2.876097084009520e-01)
"freq" 1.412537544622752e+01
"in" (1.000000000000000e+00 0.000000000000000e+00)
"out" (8.880744825600196e-01 -3.152747944028716e-01)
"freq" 1.584893192461110e+01
"in" (1.000000000000000e+00 0.000000000000000e+00)
"out" (8.630626166290996e-01 -3.437812333540494e-01)
"freq" 1.778279410038919e+01
"in" (1.000000000000000e+00 0.000000000000000e+00)
"out" (8.335092392913652e-01 -3.725205864207974e-01)
"freq" 1.995262314968875e+01
"in" (1.000000000000000e+00 0.000000000000000e+00)
"out" (7.990626942903646e-01 -4.007012663865540e-01)
"freq" 2.238721138568335e+01
"in" (1.000000000000000e+00 0.000000000000000e+00)
"out" (7.595452454424781e-01 -4.273596442906183e-01)
"freq" 2.511886431509575e+01
"in" (1.000000000000000e+00 0.000000000000000e+00)
"out" (7.150277289104774e-01 -4.514012359305214e-01)
"freq" 2.818382931264447e+01
"in" (1.000000000000000e+00 0.000000000000000e+00)
"out" (6.658937202113395e-01 -4.716770861452163e-01)
"freq" 3.162277660168372e+01
"in" (1.000000000000000e+00 0.000000000000000e+00)
"out" (6.128747775090948e-01 -4.870926858435388e-01)
"freq" 3.548133892335746e+01
"in" (1.000000000000000e+00 0.000000000000000e+00)
"out" (5.570390960453904e-01 -4.967358870892305e-01)
"freq" 3.981071705534962e+01
"in" (1.000000000000000e+00 0.000000000000000e+00)
"out" (4.997238513592934e-01 -4.999999237419224e-01)
"freq" 4.466835921509619e+01
"in" (1.000000000000000e+00 0.000000000000000e+00)
"out" (4.424158630252309e-01 -4.966729982280806e-01)
"freq" 5.011872336272709e+01
"in" (1.000000000000000e+00 0.000000000000000e+00)
"out" (3.866012026897293e-01 -4.869709568019269e-01)
"freq" 5.623413251903474e+01
"in" (1.000000000000000e+00 0.000000000000000e+00)
"out" (3.336149612102624e-01 -4.715039966606195e-01)
"freq" 6.309573444801914e+01
"in" (1.000000000000000e+00 0.000000000000000e+00)
"out" (2.845223337923301e-01 -4.511866303046844e-01)
"freq" 7.079457843841358e+01
"in" (1.000000000000000e+00 0.000000000000000e+00)
"out" (2.400515078441108e-01 -4.271144828097961e-01)
"freq" 7.943282347242791e+01
"in" (1.000000000000000e+00 0.000000000000000e+00)
"out" (2.005828292848041e-01 -4.004364592303094e-01)
"freq" 8.912509381337428e+01
"in" (1.000000000000000e+00 0.000000000000000e+00)
"out" (1.661844138322301e-01 -3.722460939102897e-01)
"freq" 9.999999999999969e+01
"in" (1.000000000000000e+00 0.000000000000000e+00)
"out" (1.366764984976099e-01 -3.435055068787730e-01)
"freq" 1.122018454301960e+02
"in" (1.000000000000000e+00 0.000000000000000e+00)
"out" (1.117061161924789e-01 -3.150045393286758e-01)
"freq" 1.258925411794163e+02
"in" (1.000000000000000e+00 0.000000000000000e+00)
"out" (9.081784333516249e-02 -2.873498958884662e-01)
"freq" 1.412537544622750e+02
"in" (1.000000000000000e+00 0.000000000000000e+00)
"out" (7.351228867653227e-02 -2.609755392562116e-01)
"freq" 1.584893192461108e+02
"in" (1.000000000000000e+00 0.000000000000000e+00)
"out" (5.928930534758719e-02 -2.361653734546785e-01)
"freq" 1.778279410038917e+02
"in" (1.000000000000000e+00 0.000000000000000e+00)
"out" (4.767654351483246e-02 -2.130809487338339e-01)
"freq" 1.995262314968873e+02
"in" (1.000000000000000e+00 0.000000000000000e+00)
"out" (3.824585272756515e-02 -1.917892266961483e-01)
"freq" 2.238721138568332e+02
"in" (1.000000000000000e+00 0.000000000000000e+00)
"out" (3.062062534001024e-02 -1.722875580063661e-01)
"freq" 2.511886431509571e+02
"in" (1.000000000000000e+00 0.000000000000000e+00)
"out" (2.447697833936850e-02 -1.545246125079839e-01)
"freq" 2.818382931264443e+02
"in" (1.000000000000000e+00 0.000000000000000e+00)
"out" (1.954112940551002e-02 -1.384170280964995e-01)
"freq" 3.162277660168368e+02
"in" (1.000000000000000e+00 0.000000000000000e+00)
"out" (1.558470667427844e-02 -1.238621152417281e-01)
"freq" 3.548133892335741e+02
"in" (1.000000000000000e+00 0.000000000000000e+00)
"out" (1.241918016335684e-02 -1.107472082150468e-01)
"freq" 3.981071705534957e+02
"in" (1.000000000000000e+00 0.000000000000000e+00)
"out" (9.890167660991211e-03 -9.895631482946753e-02)
"freq" 4.466835921509614e+02
"in" (1.000000000000000e+00 0.000000000000000e+00)
"out" (7.872052182947864e-03 -8.837467384594304e-02)
"freq" 5.011872336272703e+02
"in" (1.000000000000000e+00 0.000000000000000e+00)
"out" (6.263133696295934e-03 -7.889174134596255e-02)
"freq" 5.623413251903468e+02
"in" (1.000000000000000e+00 0.000000000000000e+00)
"out" (4.981400722984000e-03 -7.040302812962704e-02)
"freq" 6.309573444801906e+02
"in" (1.000000000000000e+00 0.000000000000000e+00)
"out" (3.960925343369161e-03 -6.281111696024372e-02)
"freq" 7.079457843841349e+02
"in" (1.000000000000000e+00 0.000000000000000e+00)
"out" (3.148840040009713e-03 -5.602610861386096e-02)
"freq" 7.943282347242780e+02
"in" (1.000000000000000e+00 0.000000000000000e+00)
"out" (2.502833454156853e-03 -4.996568101064576e-02)
"freq" 8.912509381337416e+02
"in" (1.000000000000000e+00 0.000000000000000e+00)
"out" (1.989095190415209e-03 -4.455489525000227e-02)
"freq" 9.999999999999955e+02
"in" (1.000000000000000e+00 0.000000000000000e+00)
"out" (1.580641112716946e-03 -3.972584406138823e-02)
"freq" 1.122018454301958e+03
"in" (1.000000000000000e+00 0.000000000000000e+00)
"out" (1.255956167666867e-03 -3.541720968359544e-02)
"freq" 1.258925411794161e+03
"in" (1.000000000000000e+00 0.000000000000000e+00)
"out" (9.978992176129908e-04 -3.157377732810059e-02)
"freq" 1.412537544622747e+03
"in" (1.000000000000000e+00 0.000000000000000e+00)
"out" (7.928222425534524e-04 -2.814593532723979e-02)
"freq" 1.584893192461106e+03
"in" (1.000000000000000e+00 0.000000000000000e+00)
"out" (6.298637986930993e-04 -2.508918233598288e-02)
"freq" 1.778279410038914e+03
"in" (1.000000000000000e+00 0.000000000000000e+00)
"out" (5.003834216027281e-04 -2.236365439802076e-02)
"freq" 1.995262314968869e+03
"in" (1.000000000000000e+00 0.000000000000000e+00)
"out" (3.975095895636986e-04 -1.993367943180344e-02)
"freq" 2.238721138568328e+03
"in" (1.000000000000000e+00 0.000000000000000e+00)
"out" (3.157789075420450e-04 -1.776736309145498e-02)
"freq" 2.511886431509567e+03
"in" (1.000000000000000e+00 0.000000000000000e+00)
"out" (2.508483939928520e-04 -1.583620753451037e-02)
"freq" 2.818382931264438e+03
"in" (1.000000000000000e+00 0.000000000000000e+00)
"out" (1.992662426138369e-04 -1.411476303656535e-02)
"freq" 3.162277660168362e+03
"in" (1.000000000000000e+00 0.000000000000000e+00)
"out" (1.582892899751886e-04 -1.258031138230957e-02)
"freq" 3.548133892335735e+03
"in" (1.000000000000000e+00 0.000000000000000e+00)
"out" (1.257377457542467e-04 -1.121257935416911e-02)
"freq" 3.981071705534950e+03
"in" (1.000000000000000e+00 0.000000000000000e+00)
"out" (9.987962458060129e-05 -9.993480306739737e-03)
"freq" 4.466835921509605e+03
"in" (1.000000000000000e+00 0.000000000000000e+00)
"out" (7.933883568961510e-05 -8.906881667495450e-03)
"freq" 5.011872336272693e+03
"in" (1.000000000000000e+00 0.000000000000000e+00)
"out" (6.302210567790559e-05 -7.938396178832442e-03)
"freq" 5.623413251903457e+03
"in" (1.000000000000000e+00 0.000000000000000e+00)
"out" (5.006088683433126e-05 -7.075194749400233e-03)
"freq" 6.309573444801895e+03
"in" (1.000000000000000e+00 0.000000000000000e+00)
"out" (3.976518529460676e-05 -6.305838883498788e-03)
"freq" 7.079457843841336e+03
"in" (1.000000000000000e+00 0.000000000000000e+00)
"out" (3.158686777414311e-05 -5.620130785304496e-03)
"freq" 7.943282347242766e+03
"in" (1.000000000000000e+00 0.000000000000000e+00)
"out" (2.509050392063690e-05 -5.008979375806005e-03)
"freq" 8.912509381337401e+03
"in" (1.000000000000000e+00 0.000000000000000e+00)
"out" (1.993019853558279e-05 -4.464280605290074e-03)
"freq" 9.999999999999938e+03
"in" (1.000000000000000e+00 0.000000000000000e+00)
"out" (1.583118431375093e-05 -3.978810587016445e-03)
"freq" 1.122018454301956e+04
"in" (1.000000000000000e+00 0.000000000000000e+00)
"out" (1.257519763472739e-05 -3.546130214632824e-03)
"freq" 1.258925411794159e+04
"in" (1.000000000000000e+00 0.000000000000000e+00)
"out" (9.988860373321810e-06 -3.160500054736632e-03)
"freq" 1.412537544622745e+04
"in" (1.000000000000000e+00 0.000000000000000e+00)
"out" (7.934450127993012e-06 -2.816804425673564e-03)
"freq" 1.584893192461103e+04
"in" (1.000000000000000e+00 0.000000000000000e+00)
"out" (6.302568048789213e-06 -2.510483683760005e-03)
"freq" 1.778279410038911e+04
"in" (1.000000000000000e+00 0.000000000000000e+00)
"out" (5.006314241910778e-06 -2.237473838669067e-03)
"freq" 1.995262314968866e+04
"in" (1.000000000000000e+00 0.000000000000000e+00)
"out" (3.976660848850639e-06 -1.994152711057789e-03)
"freq" 2.238721138568325e+04
"in" (1.000000000000000e+00 0.000000000000000e+00)
"out" (3.158776575686536e-06 -1.777291928135916e-03)
"freq" 2.511886431509563e+04
"in" (1.000000000000000e+00 0.000000000000000e+00)
"out" (2.509107051347973e-06 -1.584014127376955e-03)
"freq" 2.818382931264435e+04
"in" (1.000000000000000e+00 0.000000000000000e+00)
"out" (1.993055603352762e-06 -1.411754805581381e-03)
"freq" 3.162277660168357e+04
"in" (1.000000000000000e+00 0.000000000000000e+00)
"out" (1.583140988072194e-06 -1.258228310656220e-03)
"freq" 3.548133892335730e+04
"in" (1.000000000000000e+00 0.000000000000000e+00)
"out" (1.257533995837418e-06 -1.121397527394129e-03)
"freq" 3.981071705534944e+04
"in" (1.000000000000000e+00 0.000000000000000e+00)
"out" (9.988950173727531e-07 -9.994468568070528e-04)
"freq" 4.466835921509599e+04
"in" (1.000000000000000e+00 0.000000000000000e+00)
"out" (7.934506788346589e-07 -8.907581317454695e-04)
"freq" 5.011872336272686e+04
"in" (1.000000000000000e+00 0.000000000000000e+00)
"out" (6.302603799119623e-07 -7.938891501235017e-04)
"freq" 5.623413251903449e+04
"in" (1.000000000000000e+00 0.000000000000000e+00)
"out" (5.006336798876484e-07 -7.075545415397791e-04)
"freq" 6.309573444801885e+04
"in" (1.000000000000000e+00 0.000000000000000e+00)
"out" (3.976675081349941e-07 -6.306087138595114e-04)
"freq" 7.079457843841326e+04
"in" (1.000000000000000e+00 0.000000000000000e+00)
"out" (3.158785555794580e-07 -5.620306537905171e-04)
"freq" 7.943282347242754e+04
"in" (1.000000000000000e+00 0.000000000000000e+00)
"out" (2.509112717417147e-07 -5.009103799935158e-04)
"freq" 8.912509381337385e+04
"in" (1.000000000000000e+00 0.000000000000000e+00)
"out" (1.993059178402753e-07 -4.464368691286892e-04)
"freq" 9.999999999999920e+04
"in" (1.000000000000000e+00 0.000000000000000e+00)
"out" (1.583143243777261e-07 -3.978872947384734e-04)
"freq" 1.122018454301954e+05
"in" (1.000000000000000e+00 0.000000000000000e+00)
"out" (1.257535419091607e-07 -3.546174362537852e-04)
"freq" 1.258925411794157e+05
"in" (1.000000000000000e+00 0.000000000000000e+00)
"out" (9.988959153856930e-08 -3.160531309141531e-04)
"freq" 1.412537544622743e+05
"in" (1.000000000000000e+00 0.000000000000000e+00)
"out" (7.934512454426473e-08 -2.816826552143669e-04)
"freq" 1.584893192461100e+05
"in" (1.000000000000000e+00 0.000000000000000e+00)
"out" (6.302607374174982e-08 -2.510499348127058e-04)
"freq" 1.778279410038908e+05
"in" (1.000000000000000e+00 0.000000000000000e+00)
"out" (5.006339054584246e-08 -2.237484928206208e-04)
"freq" 1.995262314968862e+05
"in" (1.000000000000000e+00 0.000000000000000e+00)
"out" (3.976676504605482e-08 -1.994160561857024e-04)
"freq" 2.238721138568320e+05
"in" (1.000000000000000e+00 0.000000000000000e+00)
"out" (3.158786453808200e-08 -1.777297486080729e-04)
"freq" 2.511886431509558e+05
"in" (1.000000000000000e+00 0.000000000000000e+00)
"out" (2.509113284025478e-08 -1.584018062103139e-04)
"freq" 2.818382931264429e+05
"in" (1.000000000000000e+00 0.000000000000000e+00)
"out" (1.993059535908461e-08 -1.411757591155648e-04)
"freq" 3.162277660168351e+05
"in" (1.000000000000000e+00 0.000000000000000e+00)
"out" (1.583143469348123e-08 -1.258230282692596e-04)
"freq" 3.548133892335723e+05
"in" (1.000000000000000e+00 0.000000000000000e+00)
"out" (1.257535561417205e-08 -1.121398923489428e-04)
"freq" 3.981071705534937e+05
"in" (1.000000000000000e+00 0.000000000000000e+00)
"out" (9.988960051870771e-09 -9.994478451670926e-05)
"freq" 4.466835921509591e+05
"in" (1.000000000000000e+00 0.000000000000000e+00)
"out" (7.934513021034913e-09 -8.907588314509386e-05)
"freq" 5.011872336272677e+05
"in" (1.000000000000000e+00 0.000000000000000e+00)
"out" (6.302607731680747e-09 -7.938896454771207e-05)
"freq" 5.623413251903439e+05
"in" (1.000000000000000e+00 0.000000000000000e+00)
"out" (5.006339280155137e-09 -7.075548922233316e-05)
"freq" 6.309573444801874e+05
"in" (1.000000000000000e+00 0.000000000000000e+00)
"out" (3.976676646931096e-09 -6.306089621244801e-05)
"freq" 7.079457843841313e+05
"in" (1.000000000000000e+00 0.000000000000000e+00)
"out" (3.158786543609592e-09 -5.620308295486699e-05)
"freq" 7.943282347242740e+05
"in" (1.000000000000000e+00 0.000000000000000e+00)
"out" (2.509113340686327e-09 -5.009105044207675e-05)
"freq" 8.912509381337371e+05
"in" (1.000000000000000e+00 0.000000000000000e+00)
"out" (1.993059571659040e-09 -4.464369572164421e-05)
"freq" 1.000000000000000e+06
"in" (1.000000000000000e+00 0.000000000000000e+00)
"out" (1.583143491905185e-09 -3.978873570998257e-05)
END
