HEADER
"PSFversion" "1.00"
"simulator" "spectre"
"version" "23.1.0.242.isr1"
"date" "5:46:18 PM, Tue Apr 15, 2025"
"design" "#RC Low-Pass Filter"
"analysis type" "ac"
"analysis name" "mysweep-000_mynestedsweep-000_ac2"
"analysis description" "AC Analysis `mysweep-000_mynestedsweep-000_ac2': freq = (1 Hz -> 1 MHz)"
"xVecSorted" "ascending"
"tolerance.relative" 1.000000000000000e-03
"start" 1.000000000000000e+00
"stop" 1.000000000000000e+06
"operating point producer" "mysweep-000_mynestedsweep-000_ac2"
TYPE
"sweep" FLOAT DOUBLE PROP(
"key" "sweep"
)
"V" COMPLEX DOUBLE PROP(
"units" "V"
"key" "node"
"tolerance" 1.000000000000000e-06
)
"I" COMPLEX DOUBLE PROP(
"units" "A"
"key" "branch"
"tolerance" 1.000000000000000e-12
)
"MMF" COMPLEX DOUBLE PROP(
"units" "A*turn"
"key" "node"
"tolerance" 1.000000000000000e-12
)
"Wb" COMPLEX DOUBLE PROP(
"units" "Wb"
"key" "node"
"tolerance" 1.000000000000000e-09
)
"Temp" COMPLEX DOUBLE PROP(
"units" "C"
"key" "node"
"tolerance" 1.000000000000000e-04
)
"Pwr" COMPLEX DOUBLE PROP(
"units" "W"
"key" "node"
"tolerance" 1.000000000000000e-09
)
"U" COMPLEX DOUBLE PROP(
"units" ""
"key" "node"
"tolerance" 1.000000000000000e-06
)
"V/Sec" COMPLEX DOUBLE PROP(
"units" "V/s"
"key" "node"
"tolerance" 9.999999999999999e-05
)
"I/Sec" COMPLEX DOUBLE PROP(
"units" "A/s"
"key" "node"
"tolerance" 1.000000000000000e-06
)
"1/Sec" COMPLEX DOUBLE PROP(
"units" "1/s"
"key" "node"
"tolerance" 9.999999999999999e-05
)
"HOD" COMPLEX DOUBLE PROP(
"units" ""
"key" "node"
"tolerance" 1.000000000000000e-02
)
"Q" COMPLEX DOUBLE PROP(
"units" "Coul"
"key" "node"
"tolerance" 1.000000000000000e-15
)
SWEEP
"freq" "sweep" PROP(
"sweep_direction" 0
"units" "Hz"
"plot" 0
"grid" 3
)
TRACE
"in" "V"
"out" "V"
VALUE
"freq" 1.000000000000000e+00
"in" (1.000000000000000e+00 0.000000000000000e+00)
"out" (9.999605231408795e-01 -6.282937266758386e-03)
"freq" 1.122018454301963e+00
"in" (1.000000000000000e+00 0.000000000000000e+00)
"out" (9.999503020868659e-01 -7.049499503628174e-03)
"freq" 1.258925411794167e+00
"in" (1.000000000000000e+00 0.000000000000000e+00)
"out" (9.999374348393341e-01 -7.909566755942097e-03)
"freq" 1.412537544622754e+00
"in" (1.000000000000000e+00 0.000000000000000e+00)
"out" (9.999212364052920e-01 -8.874536100789220e-03)
"freq" 1.584893192461113e+00
"in" (1.000000000000000e+00 0.000000000000000e+00)
"out" (9.999008445312640e-01 -9.957190212550914e-03)
"freq" 1.778279410038922e+00
"in" (1.000000000000000e+00 0.000000000000000e+00)
"out" (9.998751738654601e-01 -1.117186434647771e-02)
"freq" 1.995262314968879e+00
"in" (1.000000000000000e+00 0.000000000000000e+00)
"out" (9.998428582860952e-01 -1.253463283812140e-02)
"freq" 2.238721138568339e+00
"in" (1.000000000000000e+00 0.000000000000000e+00)
"out" (9.998021783520763e-01 -1.406351714612529e-02)
"freq" 2.511886431509579e+00
"in" (1.000000000000000e+00 0.000000000000000e+00)
"out" (9.997509700560014e-01 -1.577871756783714e-02)
"freq" 2.818382931264452e+00
"in" (1.000000000000000e+00 0.000000000000000e+00)
"out" (9.996865100890888e-01 -1.770287081202124e-02)
"freq" 3.162277660168377e+00
"in" (1.000000000000000e+00 0.000000000000000e+00)
"out" (9.996053716169974e-01 -1.986133559058593e-02)
"freq" 3.548133892335751e+00
"in" (1.000000000000000e+00 0.000000000000000e+00)
"out" (9.995032430587076e-01 -2.228250824825742e-02)
"freq" 3.981071705534969e+00
"in" (1.000000000000000e+00 0.000000000000000e+00)
"out" (9.993747004910177e-01 -2.499817012315514e-02)
"freq" 4.466835921509626e+00
"in" (1.000000000000000e+00 0.000000000000000e+00)
"out" (9.992129219907594e-01 -2.804386773339373e-02)
"freq" 5.011872336272718e+00
"in" (1.000000000000000e+00 0.000000000000000e+00)
"out" (9.990093293863227e-01 -3.145932588935491e-02)
"freq" 5.623413251903484e+00
"in" (1.000000000000000e+00 0.000000000000000e+00)
"out" (9.987531394216771e-01 -3.528889226117960e-02)
"freq" 6.309573444801925e+00
"in" (1.000000000000000e+00 0.000000000000000e+00)
"out" (9.984308021389244e-01 -3.958200953903542e-02)
"freq" 7.079457843841370e+00
"in" (1.000000000000000e+00 0.000000000000000e+00)
"out" (9.980252992677398e-01 -4.439370776673619e-02)
"freq" 7.943282347242804e+00
"in" (1.000000000000000e+00 0.000000000000000e+00)
"out" (9.975152695106657e-01 -4.978510423540034e-02)
"freq" 8.912509381337442e+00
"in" (1.000000000000000e+00 0.000000000000000e+00)
"out" (9.968739208393844e-01 -5.582389085057633e-02)
"freq" 9.999999999999984e+00
"in" (1.000000000000000e+00 0.000000000000000e+00)
"out" (9.960676824071726e-01 -6.258477827057159e-02)
"freq" 1.122018454301961e+01
"in" (1.000000000000000e+00 0.000000000000000e+00)
"out" (9.950545408077109e-01 -7.014985121628119e-02)
"freq" 1.258925411794165e+01
"in" (1.000000000000000e+00 0.000000000000000e+00)
"out" (9.937819979329331e-01 -7.860876870528412e-02)
"freq" 1.412537544622752e+01
"in" (1.000000000000000e+00 0.000000000000000e+00)
"out" (9.921845820003579e-01 -8.805871473700431e-02)
"freq" 1.584893192461110e+01
"in" (1.000000000000000e+00 0.000000000000000e+00)
"out" (9.901808418263093e-01 -9.860396699144962e-02)
"freq" 1.778279410038919e+01
"in" (1.000000000000000e+00 0.000000000000000e+00)
"out" (9.876697610169543e-01 -1.103549010677224e-01)
"freq" 1.995262314968875e+01
"in" (1.000000000000000e+00 0.000000000000000e+00)
"out" (9.845265495375670e-01 -1.234261835803878e-01)
"freq" 2.238721138568335e+01
"in" (1.000000000000000e+00 0.000000000000000e+00)
"out" (9.805978142707004e-01 -1.379338280416572e-01)
"freq" 2.511886431509575e+01
"in" (1.000000000000000e+00 0.000000000000000e+00)
"out" (9.756961908471387e-01 -1.539906945679596e-01)
"freq" 2.818382931264447e+01
"in" (1.000000000000000e+00 0.000000000000000e+00)
"out" (9.695946540587104e-01 -1.716999151993968e-01)
"freq" 3.162277660168372e+01
"in" (1.000000000000000e+00 0.000000000000000e+00)
"out" (9.620209357541626e-01 -1.911456379958693e-01)
"freq" 3.548133892335746e+01
"in" (1.000000000000000e+00 0.000000000000000e+00)
"out" (9.526527912746885e-01 -2.123804382499321e-01)
"freq" 3.981071705534962e+01
"in" (1.000000000000000e+00 0.000000000000000e+00)
"out" (9.411152867478174e-01 -2.354088014441915e-01)
"freq" 4.466835921509619e+01
"in" (1.000000000000000e+00 0.000000000000000e+00)
"out" (9.269818278368048e-01 -2.601663289073766e-01)
"freq" 5.011872336272709e+01
"in" (1.000000000000000e+00 0.000000000000000e+00)
"out" (9.097812664019551e-01 -2.864948755318492e-01)
"freq" 5.623413251903474e+01
"in" (1.000000000000000e+00 0.000000000000000e+00)
"out" (8.890139687692377e-01 -3.141148390356725e-01)
"freq" 6.309573444801914e+01
"in" (1.000000000000000e+00 0.000000000000000e+00)
"out" (8.641799400944494e-01 -3.425973894132924e-01)
"freq" 7.079457843841358e+01
"in" (1.000000000000000e+00 0.000000000000000e+00)
"out" (8.348215494852835e-01 -3.713415274383863e-01)
"freq" 7.943282347242791e+01
"in" (1.000000000000000e+00 0.000000000000000e+00)
"out" (8.005815582254369e-01 -3.995631700429461e-01)
"freq" 8.912509381337428e+01
"in" (1.000000000000000e+00 0.000000000000000e+00)
"out" (7.612735761181861e-01 -4.263051939894872e-01)
"freq" 9.999999999999969e+01
"in" (1.000000000000000e+00 0.000000000000000e+00)
"out" (7.169568003248992e-01 -4.504772433683880e-01)
"freq" 1.122018454301960e+02
"in" (1.000000000000000e+00 0.000000000000000e+00)
"out" (6.680009623407722e-01 -4.709306495149519e-01)
"freq" 1.258925411794163e+02
"in" (1.000000000000000e+00 0.000000000000000e+00)
"out" (6.151231395586028e-01 -4.865661956385487e-01)
"freq" 1.412537544622750e+02
"in" (1.000000000000000e+00 0.000000000000000e+00)
"out" (5.593786009437456e-01 -4.964616619135493e-01)
"freq" 1.584893192461108e+02
"in" (1.000000000000000e+00 0.000000000000000e+00)
"out" (5.020954917241733e-01 -4.999956088951522e-01)
"freq" 1.778279410038917e+02
"in" (1.000000000000000e+00 0.000000000000000e+00)
"out" (4.447573202504247e-01 -4.969388758530427e-01)
"freq" 1.995262314968873e+02
"in" (1.000000000000000e+00 0.000000000000000e+00)
"out" (3.888532701177238e-01 -4.874899018815430e-01)
"freq" 2.238721138568332e+02
"in" (1.000000000000000e+00 0.000000000000000e+00)
"out" (3.357273050670993e-01 -4.722440912277062e-01)
"freq" 2.511886431509571e+02
"in" (1.000000000000000e+00 0.000000000000000e+00)
"out" (2.864574583735112e-01 -4.521057209499779e-01)
"freq" 2.818382931264443e+02
"in" (1.000000000000000e+00 0.000000000000000e+00)
"out" (2.417863849393159e-01 -4.281655392453868e-01)
"freq" 3.162277660168368e+02
"in" (1.000000000000000e+00 0.000000000000000e+00)
"out" (2.021083228643792e-01 -4.015725945496369e-01)
"freq" 3.548133892335741e+02
"in" (1.000000000000000e+00 0.000000000000000e+00)
"out" (1.675031126119472e-01 -3.734244500260481e-01)
"freq" 3.981071705534957e+02
"in" (1.000000000000000e+00 0.000000000000000e+00)
"out" (1.377997439989850e-01 -3.446896786281817e-01)
"freq" 4.466835921509614e+02
"in" (1.000000000000000e+00 0.000000000000000e+00)
"out" (1.126509254707224e-01 -3.161656123953270e-01)
"freq" 5.011872336272703e+02
"in" (1.000000000000000e+00 0.000000000000000e+00)
"out" (9.160419896210829e-02 -2.884664099936400e-01)
"freq" 5.623413251903468e+02
"in" (1.000000000000000e+00 0.000000000000000e+00)
"out" (7.416102482736031e-02 -2.620327598295983e-01)
"freq" 6.309573444801906e+02
"in" (1.000000000000000e+00 0.000000000000000e+00)
"out" (5.982062976643399e-02 -2.371542156926189e-01)
"freq" 7.079457843841349e+02
"in" (1.000000000000000e+00 0.000000000000000e+00)
"out" (4.810912170923913e-02 -2.139968086621965e-01)
"freq" 7.943282347242780e+02
"in" (1.000000000000000e+00 0.000000000000000e+00)
"out" (3.859633238788723e-02 -1.926308789215554e-01)
"freq" 8.912509381337416e+02
"in" (1.000000000000000e+00 0.000000000000000e+00)
"out" (3.090347378067927e-02 -1.730562021106615e-01)
"freq" 9.999999999999955e+02
"in" (1.000000000000000e+00 0.000000000000000e+00)
"out" (2.470452303185787e-02 -1.552230961346483e-01)
"freq" 1.122018454301958e+03
"in" (1.000000000000000e+00 0.000000000000000e+00)
"out" (1.972371682572118e-02 -1.390492424297952e-01)
"freq" 1.258925411794161e+03
"in" (1.000000000000000e+00 0.000000000000000e+00)
"out" (1.573091939939304e-02 -1.244325422638421e-01)
"freq" 1.412537544622747e+03
"in" (1.000000000000000e+00 0.000000000000000e+00)
"out" (1.253607272153671e-02 -1.112605932136669e-01)
"freq" 1.584893192461106e+03
"in" (1.000000000000000e+00 0.000000000000000e+00)
"out" (9.983497127713044e-03 -9.941743766972669e-02)
"freq" 1.778279410038914e+03
"in" (1.000000000000000e+00 0.000000000000000e+00)
"out" (7.946490365064585e-03 -8.878819547632738e-02)
"freq" 1.995262314968869e+03
"in" (1.000000000000000e+00 0.000000000000000e+00)
"out" (6.322454886315763e-03 -7.926210601874180e-02)
"freq" 2.238721138568328e+03
"in" (1.000000000000000e+00 0.000000000000000e+00)
"out" (5.028643427752210e-03 -7.073440586467616e-02)
"freq" 2.511886431509567e+03
"in" (1.000000000000000e+00 0.000000000000000e+00)
"out" (3.998528935458725e-03 -6.310737438533649e-02)
"freq" 2.818382931264438e+03
"in" (1.000000000000000e+00 0.000000000000000e+00)
"out" (3.178758592607511e-03 -5.629079930519227e-02)
"freq" 3.162277660168362e+03
"in" (1.000000000000000e+00 0.000000000000000e+00)
"out" (2.526629563608210e-03 -5.020204882927101e-02)
"freq" 3.548133892335735e+03
"in" (1.000000000000000e+00 0.000000000000000e+00)
"out" (2.008016679706797e-03 -4.476588599280502e-02)
"freq" 3.981071705534950e+03
"in" (1.000000000000000e+00 0.000000000000000e+00)
"out" (1.595683349481185e-03 -3.991412211397583e-02)
"freq" 4.466835921509605e+03
"in" (1.000000000000000e+00 0.000000000000000e+00)
"out" (1.267912450570073e-03 -3.558517737187440e-02)
"freq" 5.011872336272693e+03
"in" (1.000000000000000e+00 0.000000000000000e+00)
"out" (1.007401362519558e-03 -3.172359539860436e-02)
"freq" 5.623413251903457e+03
"in" (1.000000000000000e+00 0.000000000000000e+00)
"out" (8.003731784826013e-04 -2.827954351218857e-02)
"freq" 6.309573444801895e+03
"in" (1.000000000000000e+00 0.000000000000000e+00)
"out" (6.358636861541777e-04 -2.520831933165732e-02)
"freq" 7.079457843841336e+03
"in" (1.000000000000000e+00 0.000000000000000e+00)
"out" (5.051505425353930e-04 -2.246987684578554e-02)
"freq" 7.943282347242766e+03
"in" (1.000000000000000e+00 0.000000000000000e+00)
"out" (4.012970315590354e-04 -2.002837967114408e-02)
"freq" 8.912509381337401e+03
"in" (1.000000000000000e+00 0.000000000000000e+00)
"out" (3.187878739850357e-04 -1.785178557669893e-02)
"freq" 9.999999999999938e+03
"in" (1.000000000000000e+00 0.000000000000000e+00)
"out" (2.532388129651631e-04 -1.591146388830302e-02)
"freq" 1.122018454301956e+04
"in" (1.000000000000000e+00 0.000000000000000e+00)
"out" (2.011652167702664e-04 -1.418184576583134e-02)
"freq" 1.258925411794159e+04
"in" (1.000000000000000e+00 0.000000000000000e+00)
"out" (1.597978230010202e-04 -1.264010631509025e-02)
"freq" 1.412537544622745e+04
"in" (1.000000000000000e+00 0.000000000000000e+00)
"out" (1.269360945262163e-04 -1.126587687462111e-02)
"freq" 1.584893192461103e+04
"in" (1.000000000000000e+00 0.000000000000000e+00)
"out" (1.008315563144504e-04 -1.004098547512651e-02)
"freq" 1.778279410038911e+04
"in" (1.000000000000000e+00 0.000000000000000e+00)
"out" (8.009501315849624e-05 -8.949223315314205e-03)
"freq" 1.995262314968866e+04
"in" (1.000000000000000e+00 0.000000000000000e+00)
"out" (6.362277848842556e-05 -7.976135068470379e-03)
"freq" 2.238721138568325e+04
"in" (1.000000000000000e+00 0.000000000000000e+00)
"out" (5.053803063577428e-05 -7.108830884416490e-03)
"freq" 2.511886431509563e+04
"in" (1.000000000000000e+00 0.000000000000000e+00)
"out" (4.014420193006556e-05 -6.335818050821611e-03)
"freq" 2.818382931264435e+04
"in" (1.000000000000000e+00 0.000000000000000e+00)
"out" (3.188793633719124e-05 -5.646850405022909e-03)
"freq" 3.162277660168357e+04
"in" (1.000000000000000e+00 0.000000000000000e+00)
"out" (2.532965430294599e-05 -5.032793728294344e-03)
"freq" 3.548133892335730e+04
"in" (1.000000000000000e+00 0.000000000000000e+00)
"out" (2.012016440653754e-05 -4.485505499441707e-03)
"freq" 3.981071705534944e+04
"in" (1.000000000000000e+00 0.000000000000000e+00)
"out" (1.598208081165070e-05 -3.997727527576589e-03)
"freq" 4.466835921509599e+04
"in" (1.000000000000000e+00 0.000000000000000e+00)
"out" (1.269505976779768e-05 -3.562990121127923e-03)
"freq" 5.011872336272686e+04
"in" (1.000000000000000e+00 0.000000000000000e+00)
"out" (1.008407074473752e-05 -3.175526579365182e-03)
"freq" 5.623413251903449e+04
"in" (1.000000000000000e+00 0.000000000000000e+00)
"out" (8.010078726474539e-06 -2.830196912780688e-03)
"freq" 6.309573444801885e+04
"in" (1.000000000000000e+00 0.000000000000000e+00)
"out" (6.362642176919011e-06 -2.522419809172045e-03)
"freq" 7.079457843841326e+04
"in" (1.000000000000000e+00 0.000000000000000e+00)
"out" (5.054032942361944e-06 -2.248111963206673e-03)
"freq" 7.943282347242754e+04
"in" (1.000000000000000e+00 0.000000000000000e+00)
"out" (4.014565238372395e-06 -2.003633978958817e-03)
"freq" 8.912509381337385e+04
"in" (1.000000000000000e+00 0.000000000000000e+00)
"out" (3.188885151989174e-06 -1.785742137880120e-03)
"freq" 9.999999999999920e+04
"in" (1.000000000000000e+00 0.000000000000000e+00)
"out" (2.533023174835829e-06 -1.591545399487374e-03)
"freq" 1.122018454301954e+05
"in" (1.000000000000000e+00 0.000000000000000e+00)
"out" (2.012052875204938e-06 -1.418467069356270e-03)
"freq" 1.258925411794157e+05
"in" (1.000000000000000e+00 0.000000000000000e+00)
"out" (1.598231069917377e-06 -1.264210629434362e-03)
"freq" 1.412537544622743e+05
"in" (1.000000000000000e+00 0.000000000000000e+00)
"out" (1.269520481754324e-06 -1.126729279850342e-03)
"freq" 1.584893192461100e+05
"in" (1.000000000000000e+00 0.000000000000000e+00)
"out" (1.008416226520266e-06 -1.004198789890219e-03)
"freq" 1.778279410038908e+05
"in" (1.000000000000000e+00 0.000000000000000e+00)
"out" (8.010136472115936e-07 -8.949932991864970e-04)
"freq" 1.995262314968862e+05
"in" (1.000000000000000e+00 0.000000000000000e+00)
"out" (6.362678612021590e-07 -7.976637489352063e-04)
"freq" 2.238721138568320e+05
"in" (1.000000000000000e+00 0.000000000000000e+00)
"out" (5.054055931390608e-07 -7.109186575862580e-04)
"freq" 2.511886431509558e+05
"in" (1.000000000000000e+00 0.000000000000000e+00)
"out" (4.014579743485460e-07 -6.336069863724995e-04)
"freq" 2.818382931264429e+05
"in" (1.000000000000000e+00 0.000000000000000e+00)
"out" (3.188894304105107e-07 -5.647028676392939e-04)
"freq" 3.162277660168351e+05
"in" (1.000000000000000e+00 0.000000000000000e+00)
"out" (2.533028949434762e-07 -5.032919935595236e-04)
"freq" 3.548133892335723e+05
"in" (1.000000000000000e+00 0.000000000000000e+00)
"out" (2.012056518732634e-07 -4.485594847838457e-04)
"freq" 3.981071705534937e+05
"in" (1.000000000000000e+00 0.000000000000000e+00)
"out" (1.598233368828984e-07 -3.997790781661784e-04)
"freq" 4.466835921509591e+05
"in" (1.000000000000000e+00 0.000000000000000e+00)
"out" (1.269521932270012e-07 -3.563034901739552e-04)
"freq" 5.011872336272677e+05
"in" (1.000000000000000e+00 0.000000000000000e+00)
"out" (1.008417141734054e-07 -3.175558281694010e-04)
"freq" 5.623413251903439e+05
"in" (1.000000000000000e+00 0.000000000000000e+00)
"out" (8.010142246725874e-08 -2.830219356357752e-04)
"freq" 6.309573444801874e+05
"in" (1.000000000000000e+00 0.000000000000000e+00)
"out" (6.362682255554806e-08 -2.522435698034253e-04)
"freq" 7.079457843841313e+05
"in" (1.000000000000000e+00 0.000000000000000e+00)
"out" (5.054058230304981e-08 -2.248123211674560e-04)
"freq" 7.943282347242740e+05
"in" (1.000000000000000e+00 0.000000000000000e+00)
"out" (4.014581194002535e-08 -2.003641942272599e-04)
"freq" 8.912509381337371e+05
"in" (1.000000000000000e+00 0.000000000000000e+00)
"out" (3.188895219319593e-08 -1.785747775479243e-04)
"freq" 1.000000000000000e+06
"in" (1.000000000000000e+00 0.000000000000000e+00)
"out" (2.533029526896058e-08 -1.591549390604537e-04)
END
