HEADER
"PSFversion" "1.00"
"simulator" "spectre"
"version" "23.1.0.242.isr1"
"date" "5:46:18 PM, Tue Apr 15, 2025"
"design" "#RC Low-Pass Filter"
"analysis type" "ac"
"analysis name" "mysweep-000_mynestedsweep-002_ac2"
"analysis description" "AC Analysis `mysweep-000_mynestedsweep-002_ac2': freq = (1 Hz -> 1 MHz)"
"xVecSorted" "ascending"
"tolerance.relative" 1.000000000000000e-03
"start" 1.000000000000000e+00
"stop" 1.000000000000000e+06
"operating point producer" "mysweep-000_mynestedsweep-002_ac2"
TYPE
"sweep" FLOAT DOUBLE PROP(
"key" "sweep"
)
"V" COMPLEX DOUBLE PROP(
"units" "V"
"key" "node"
"tolerance" 1.000000000000000e-06
)
"I" COMPLEX DOUBLE PROP(
"units" "A"
"key" "branch"
"tolerance" 1.000000000000000e-12
)
"MMF" COMPLEX DOUBLE PROP(
"units" "A*turn"
"key" "node"
"tolerance" 1.000000000000000e-12
)
"Wb" COMPLEX DOUBLE PROP(
"units" "Wb"
"key" "node"
"tolerance" 1.000000000000000e-09
)
"Temp" COMPLEX DOUBLE PROP(
"units" "C"
"key" "node"
"tolerance" 1.000000000000000e-04
)
"Pwr" COMPLEX DOUBLE PROP(
"units" "W"
"key" "node"
"tolerance" 1.000000000000000e-09
)
"U" COMPLEX DOUBLE PROP(
"units" ""
"key" "node"
"tolerance" 1.000000000000000e-06
)
"V/Sec" COMPLEX DOUBLE PROP(
"units" "V/s"
"key" "node"
"tolerance" 9.999999999999999e-05
)
"I/Sec" COMPLEX DOUBLE PROP(
"units" "A/s"
"key" "node"
"tolerance" 1.000000000000000e-06
)
"1/Sec" COMPLEX DOUBLE PROP(
"units" "1/s"
"key" "node"
"tolerance" 9.999999999999999e-05
)
"HOD" COMPLEX DOUBLE PROP(
"units" ""
"key" "node"
"tolerance" 1.000000000000000e-02
)
"Q" COMPLEX DOUBLE PROP(
"units" "Coul"
"key" "node"
"tolerance" 1.000000000000000e-15
)
SWEEP
"freq" "sweep" PROP(
"sweep_direction" 0
"units" "Hz"
"plot" 0
"grid" 3
)
TRACE
"in" "V"
"out" "V"
VALUE
"freq" 1.000000000000000e+00
"in" (1.000000000000000e+00 0.000000000000000e+00)
"out" (9.996448204389040e-01 -1.884286094453970e-02)
"freq" 1.122018454301963e+00
"in" (1.000000000000000e+00 0.000000000000000e+00)
"out" (9.995528965426623e-01 -2.114009356261633e-02)
"freq" 1.258925411794167e+00
"in" (1.000000000000000e+00 0.000000000000000e+00)
"out" (9.994371952497627e-01 -2.371682948984612e-02)
"freq" 1.412537544622754e+00
"in" (1.000000000000000e+00 0.000000000000000e+00)
"out" (9.992915740330334e-01 -2.660684309751812e-02)
"freq" 1.584893192461113e+00
"in" (1.000000000000000e+00 0.000000000000000e+00)
"out" (9.991083081103952e-01 -2.984789398230399e-02)
"freq" 1.778279410038922e+00
"in" (1.000000000000000e+00 0.000000000000000e+00)
"out" (9.988776855425439e-01 -3.348215745310569e-02)
"freq" 1.995262314968879e+00
"in" (1.000000000000000e+00 0.000000000000000e+00)
"out" (9.985875002758774e-01 -3.755668473989535e-02)
"freq" 2.238721138568339e+00
"in" (1.000000000000000e+00 0.000000000000000e+00)
"out" (9.982224183217815e-01 -4.212388730394850e-02)
"freq" 2.511886431509579e+00
"in" (1.000000000000000e+00 0.000000000000000e+00)
"out" (9.977631867717963e-01 -4.724203525236521e-02)
"freq" 2.818382931264452e+00
"in" (1.000000000000000e+00 0.000000000000000e+00)
"out" (9.971856489670347e-01 -5.297575352204702e-02)
"freq" 3.162277660168377e+00
"in" (1.000000000000000e+00 0.000000000000000e+00)
"out" (9.964595219380382e-01 -5.939649044391851e-02)
"freq" 3.548133892335751e+00
"in" (1.000000000000000e+00 0.000000000000000e+00)
"out" (9.955468844568202e-01 -6.658292052124867e-02)
"freq" 3.981071705534969e+00
"in" (1.000000000000000e+00 0.000000000000000e+00)
"out" (9.944003162551296e-01 -7.462122544442507e-02)
"freq" 4.466835921509626e+00
"in" (1.000000000000000e+00 0.000000000000000e+00)
"out" (9.929606222323508e-01 -8.360517285607096e-02)
"freq" 5.011872336272718e+00
"in" (1.000000000000000e+00 0.000000000000000e+00)
"out" (9.911540716867482e-01 -9.363587915713015e-02)
"freq" 5.623413251903484e+00
"in" (1.000000000000000e+00 0.000000000000000e+00)
"out" (9.888890848913978e-01 -1.048210984203640e-01)
"freq" 6.309573444801925e+00
"in" (1.000000000000000e+00 0.000000000000000e+00)
"out" (9.860523126989585e-01 -1.172738219723135e-01)
"freq" 7.079457843841370e+00
"in" (1.000000000000000e+00 0.000000000000000e+00)
"out" (9.825040869481768e-01 -1.311099007638489e-01)
"freq" 7.943282347242804e+00
"in" (1.000000000000000e+00 0.000000000000000e+00)
"out" (9.780732814842091e-01 -1.464443154612705e-01)
"freq" 8.912509381337442e+00
"in" (1.000000000000000e+00 0.000000000000000e+00)
"out" (9.725517312421320e-01 -1.633856214605916e-01)
"freq" 9.999999999999984e+00
"in" (1.000000000000000e+00 0.000000000000000e+00)
"out" (9.656885304280221e-01 -1.820279995709156e-01)
"freq" 1.122018454301961e+01
"in" (1.000000000000000e+00 0.000000000000000e+00)
"out" (9.571847940981746e-01 -2.024402727853570e-01)
"freq" 1.258925411794165e+01
"in" (1.000000000000000e+00 0.000000000000000e+00)
"out" (9.466898427406711e-01 -2.246512505914766e-01)
"freq" 1.412537544622752e+01
"in" (1.000000000000000e+00 0.000000000000000e+00)
"out" (9.338002667008043e-01 -2.486309083969872e-01)
"freq" 1.584893192461110e+01
"in" (1.000000000000000e+00 0.000000000000000e+00)
"out" (9.180639228501142e-01 -2.742673083164923e-01)
"freq" 1.778279410038919e+01
"in" (1.000000000000000e+00 0.000000000000000e+00)
"out" (8.989915188479424e-01 -3.013399540177372e-01)
"freq" 1.995262314968875e+01
"in" (1.000000000000000e+00 0.000000000000000e+00)
"out" (8.760788482597114e-01 -3.294915778766569e-01)
"freq" 2.238721138568335e+01
"in" (1.000000000000000e+00 0.000000000000000e+00)
"out" (8.488426000255944e-01 -3.582022339508551e-01)
"freq" 2.511886431509575e+01
"in" (1.000000000000000e+00 0.000000000000000e+00)
"out" (8.168714820331495e-01 -3.867718498987684e-01)
"freq" 2.818382931264447e+01
"in" (1.000000000000000e+00 0.000000000000000e+00)
"out" (7.798916505943534e-01 -4.143195191245139e-01)
"freq" 3.162277660168372e+01
"in" (1.000000000000000e+00 0.000000000000000e+00)
"out" (7.378408848137786e-01 -4.398087237777337e-01)
"freq" 3.548133892335746e+01
"in" (1.000000000000000e+00 0.000000000000000e+00)
"out" (6.909401074149650e-01 -4.621059135959651e-01)
"freq" 3.981071705534962e+01
"in" (1.000000000000000e+00 0.000000000000000e+00)
"out" (6.397454620501519e-01 -4.800741670162951e-01)
"freq" 4.466835921509619e+01
"in" (1.000000000000000e+00 0.000000000000000e+00)
"out" (5.851620950429989e-01 -4.926940405240226e-01)
"freq" 5.011872336272709e+01
"in" (1.000000000000000e+00 0.000000000000000e+00)
"out" (5.284050156741446e-01 -4.991925030332002e-01)
"freq" 5.623413251903474e+01
"in" (1.000000000000000e+00 0.000000000000000e+00)
"out" (4.709039154418758e-01 -4.991526999460049e-01)
"freq" 6.309573444801914e+01
"in" (1.000000000000000e+00 0.000000000000000e+00)
"out" (4.141648175026255e-01 -4.925772238397167e-01)
"freq" 7.079457843841358e+01
"in" (1.000000000000000e+00 0.000000000000000e+00)
"out" (3.596155865487612e-01 -4.798877123452441e-01)
"freq" 7.943282347242791e+01
"in" (1.000000000000000e+00 0.000000000000000e+00)
"out" (3.084679595610649e-01 -4.618608854247112e-01)
"freq" 8.912509381337428e+01
"in" (1.000000000000000e+00 0.000000000000000e+00)
"out" (2.616229967545429e-01 -4.395183776859795e-01)
"freq" 9.999999999999969e+01
"in" (1.000000000000000e+00 0.000000000000000e+00)
"out" (2.196326274080069e-01 -4.139977492521698e-01)
"freq" 1.122018454301960e+02
"in" (1.000000000000000e+00 0.000000000000000e+00)
"out" (1.827139958987405e-01 -3.864318718758270e-01)
"freq" 1.258925411794163e+02
"in" (1.000000000000000e+00 0.000000000000000e+00)
"out" (1.508018865148377e-01 -3.578556657905583e-01)
"freq" 1.412537544622750e+02
"in" (1.000000000000000e+00 0.000000000000000e+00)
"out" (1.236203673245644e-01 -3.291479486600276e-01)
"freq" 1.584893192461108e+02
"in" (1.000000000000000e+00 0.000000000000000e+00)
"out" (1.007569147946032e-01 -3.010065762000496e-01)
"freq" 1.778279410038917e+02
"in" (1.000000000000000e+00 0.000000000000000e+00)
"out" (8.172769319880034e-02 -2.739494065757455e-01)
"freq" 1.995262314968873e+02
"in" (1.000000000000000e+00 0.000000000000000e+00)
"out" (6.602849240733380e-02 -2.483318960539473e-01)
"freq" 2.238721138568332e+02
"in" (1.000000000000000e+00 0.000000000000000e+00)
"out" (5.317035975374151e-02 -2.243730656683177e-01)
"freq" 2.511886431509571e+02
"in" (1.000000000000000e+00 0.000000000000000e+00)
"out" (4.270168836900640e-02 -2.021837139322618e-01)
"freq" 2.818382931264443e+02
"in" (1.000000000000000e+00 0.000000000000000e+00)
"out" (3.421969227154395e-02 -1.817930277331471e-01)
"freq" 3.162277660168368e+02
"in" (1.000000000000000e+00 0.000000000000000e+00)
"out" (2.737432895316368e-02 -1.631716123212848e-01)
"freq" 3.548133892335741e+02
"in" (1.000000000000000e+00 0.000000000000000e+00)
"out" (2.186731816289208e-02 -1.462502600314096e-01)
"freq" 3.981071705534957e+02
"in" (1.000000000000000e+00 0.000000000000000e+00)
"out" (1.744830179607998e-02 -1.309345583125895e-01)
"freq" 4.466835921509614e+02
"in" (1.000000000000000e+00 0.000000000000000e+00)
"out" (1.390959505779946e-02 -1.171158325040961e-01)
"freq" 5.011872336272703e+02
"in" (1.000000000000000e+00 0.000000000000000e+00)
"out" (1.108048325604110e-02 -1.046790626001861e-01)
"freq" 5.623413251903468e+02
"in" (1.000000000000000e+00 0.000000000000000e+00)
"out" (8.821644726202766e-03 -9.350841304678112e-02)
"freq" 6.309573444801906e+02
"in" (1.000000000000000e+00 0.000000000000000e+00)
"out" (7.020018345984876e-03 -8.349094375084588e-02)
"freq" 7.079457843841349e+02
"in" (1.000000000000000e+00 0.000000000000000e+00)
"out" (5.584261446433392e-03 -7.451897389612441e-02)
"freq" 7.943282347242780e+02
"in" (1.000000000000000e+00 0.000000000000000e+00)
"out" (4.440836948838843e-03 -6.649147250612419e-02)
"freq" 8.912509381337416e+02
"in" (1.000000000000000e+00 0.000000000000000e+00)
"out" (3.530706962331174e-03 -5.931476267066505e-02)
"freq" 9.999999999999955e+02
"in" (1.000000000000000e+00 0.000000000000000e+00)
"out" (2.806578272494021e-03 -5.290275409555145e-02)
"freq" 1.122018454301958e+03
"in" (1.000000000000000e+00 0.000000000000000e+00)
"out" (2.230631961209283e-03 -4.717686130152063e-02)
"freq" 1.258925411794161e+03
"in" (1.000000000000000e+00 0.000000000000000e+00)
"out" (1.772667208806951e-03 -4.206572072095962e-02)
"freq" 1.412537544622747e+03
"in" (1.000000000000000e+00 0.000000000000000e+00)
"out" (1.408593170320252e-03 -3.750478683582642e-02)
"freq" 1.584893192461106e+03
"in" (1.000000000000000e+00 0.000000000000000e+00)
"out" (1.119209570216619e-03 -3.343586308373921e-02)
"freq" 1.778279410038914e+03
"in" (1.000000000000000e+00 0.000000000000000e+00)
"out" (8.892244526027206e-04 -2.980660551749585e-02)
"freq" 1.995262314968869e+03
"in" (1.000000000000000e+00 0.000000000000000e+00)
"out" (7.064652939906433e-04 -2.657002447832952e-02)
"freq" 2.238721138568328e+03
"in" (1.000000000000000e+00 0.000000000000000e+00)
"out" (5.612468790209433e-04 -2.368400052697459e-02)
"freq" 2.511886431509567e+03
"in" (1.000000000000000e+00 0.000000000000000e+00)
"out" (4.458657101116006e-04 -2.111082456656175e-02)
"freq" 2.818382931264438e+03
"in" (1.000000000000000e+00 0.000000000000000e+00)
"out" (3.541962029328717e-04 -1.881676773472797e-02)
"freq" 3.162277660168362e+03
"in" (1.000000000000000e+00 0.000000000000000e+00)
"out" (2.813685418017883e-04 -1.677168368248914e-02)
"freq" 3.548133892335735e+03
"in" (1.000000000000000e+00 0.000000000000000e+00)
"out" (2.235119116533892e-04 -1.494864388761530e-02)
"freq" 3.981071705534950e+03
"in" (1.000000000000000e+00 0.000000000000000e+00)
"out" (1.775499842121387e-04 -1.332360537599508e-02)
"freq" 4.466835921509605e+03
"in" (1.000000000000000e+00 0.000000000000000e+00)
"out" (1.410381158260621e-04 -1.187510943427244e-02)
"freq" 5.011872336272693e+03
"in" (1.000000000000000e+00 0.000000000000000e+00)
"out" (1.120338074001492e-04 -1.058400944000659e-02)
"freq" 5.623413251903457e+03
"in" (1.000000000000000e+00 0.000000000000000e+00)
"out" (8.899366707066962e-05 -9.433225704810149e-03)
"freq" 6.309573444801895e+03
"in" (1.000000000000000e+00 0.000000000000000e+00)
"out" (7.069147636623478e-05 -8.407525146046483e-03)
"freq" 7.079457843841336e+03
"in" (1.000000000000000e+00 0.000000000000000e+00)
"out" (5.615305205478634e-05 -7.493323621033010e-03)
"freq" 7.943282347242766e+03
"in" (1.000000000000000e+00 0.000000000000000e+00)
"out" (4.460446985442333e-05 -6.678508837734089e-03)
"freq" 8.912509381337401e+03
"in" (1.000000000000000e+00 0.000000000000000e+00)
"out" (3.543091483923947e-05 -5.952281872484966e-03)
"freq" 9.999999999999938e+03
"in" (1.000000000000000e+00 0.000000000000000e+00)
"out" (2.814398112801632e-05 -5.305015461272717e-03)
"freq" 1.122018454301956e+04
"in" (1.000000000000000e+00 0.000000000000000e+00)
"out" (2.235568825169467e-05 -4.728127375071178e-03)
"freq" 1.258925411794159e+04
"in" (1.000000000000000e+00 0.000000000000000e+00)
"out" (1.775783603437069e-05 -4.213967334191149e-03)
"freq" 1.412537544622745e+04
"in" (1.000000000000000e+00 0.000000000000000e+00)
"out" (1.410560206739058e-05 -3.755716056810059e-03)
"freq" 1.584893192461103e+04
"in" (1.000000000000000e+00 0.000000000000000e+00)
"out" (1.120451049558872e-05 -3.347295169914549e-03)
"freq" 1.778279410038911e+04
"in" (1.000000000000000e+00 0.000000000000000e+00)
"out" (8.900079552711924e-06 -2.983286835236579e-03)
"freq" 1.995262314968866e+04
"in" (1.000000000000000e+00 0.000000000000000e+00)
"out" (7.069597420874582e-06 -2.658862057660549e-03)
"freq" 2.238721138568325e+04
"in" (1.000000000000000e+00 0.000000000000000e+00)
"out" (5.615589004694169e-06 -2.369716748865632e-03)
"freq" 2.511886431509563e+04
"in" (1.000000000000000e+00 0.000000000000000e+00)
"out" (4.460626052916619e-06 -2.112014714847374e-03)
"freq" 2.818382931264435e+04
"in" (1.000000000000000e+00 0.000000000000000e+00)
"out" (3.543204469002170e-06 -1.882336822862545e-03)
"freq" 3.162277660168357e+04
"in" (1.000000000000000e+00 0.000000000000000e+00)
"out" (2.814469402138000e-06 -1.677635681815329e-03)
"freq" 3.548133892335730e+04
"in" (1.000000000000000e+00 0.000000000000000e+00)
"out" (2.235613805986238e-06 -1.495195240768625e-03)
"freq" 3.981071705534944e+04
"in" (1.000000000000000e+00 0.000000000000000e+00)
"out" (1.775811984557316e-06 -1.332594773758742e-03)
"freq" 4.466835921509599e+04
"in" (1.000000000000000e+00 0.000000000000000e+00)
"out" (1.410578114087267e-06 -1.187676776045003e-03)
"freq" 5.011872336272686e+04
"in" (1.000000000000000e+00 0.000000000000000e+00)
"out" (1.120462348367802e-06 -1.058518347942976e-03)
"freq" 5.623413251903449e+04
"in" (1.000000000000000e+00 0.000000000000000e+00)
"out" (8.900150843557428e-07 -9.434056880414133e-04)
"freq" 6.309573444801885e+04
"in" (1.000000000000000e+00 0.000000000000000e+00)
"out" (7.069642402447719e-07 -8.408113584189588e-04)
"freq" 7.079457843841326e+04
"in" (1.000000000000000e+00 0.000000000000000e+00)
"out" (5.615617386193502e-07 -7.493740209453247e-04)
"freq" 7.943282347242754e+04
"in" (1.000000000000000e+00 0.000000000000000e+00)
"out" (4.460643960454824e-07 -6.678803763190209e-04)
"freq" 8.912509381337385e+04
"in" (1.000000000000000e+00 0.000000000000000e+00)
"out" (3.543215767906328e-07 -5.952490665652933e-04)
"freq" 9.999999999999920e+04
"in" (1.000000000000000e+00 0.000000000000000e+00)
"out" (2.814476531270280e-07 -5.305163276603714e-04)
"freq" 1.122018454301954e+05
"in" (1.000000000000000e+00 0.000000000000000e+00)
"out" (2.235618304167475e-07 -4.728232020923418e-04)
"freq" 1.258925411794157e+05
"in" (1.000000000000000e+00 0.000000000000000e+00)
"out" (1.775814822719240e-07 -4.214041418125137e-04)
"freq" 1.412537544622743e+05
"in" (1.000000000000000e+00 0.000000000000000e+00)
"out" (1.410579904847099e-07 -3.755768504412289e-04)
"freq" 1.584893192461100e+05
"in" (1.000000000000000e+00 0.000000000000000e+00)
"out" (1.120463478261231e-07 -3.347332300082246e-04)
"freq" 1.778279410038908e+05
"in" (1.000000000000000e+00 0.000000000000000e+00)
"out" (8.900157972704814e-08 -2.983313121443456e-04)
"freq" 1.995262314968862e+05
"in" (1.000000000000000e+00 0.000000000000000e+00)
"out" (7.069646900636535e-08 -2.658880666904301e-04)
"freq" 2.238721138568320e+05
"in" (1.000000000000000e+00 0.000000000000000e+00)
"out" (5.615620224359226e-08 -2.369729923220644e-04)
"freq" 2.511886431509558e+05
"in" (1.000000000000000e+00 0.000000000000000e+00)
"out" (4.460645751216560e-08 -2.112024041587348e-04)
"freq" 2.818382931264429e+05
"in" (1.000000000000000e+00 0.000000000000000e+00)
"out" (3.543216897800714e-08 -1.882343425694912e-04)
"freq" 3.162277660168351e+05
"in" (1.000000000000000e+00 0.000000000000000e+00)
"out" (2.814477244185498e-08 -1.677640356266109e-04)
"freq" 3.548133892335723e+05
"in" (1.000000000000000e+00 0.000000000000000e+00)
"out" (2.235618753986596e-08 -1.495198550028284e-04)
"freq" 3.981071705534937e+05
"in" (1.000000000000000e+00 0.000000000000000e+00)
"out" (1.775815106535934e-08 -1.332597116536255e-04)
"freq" 4.466835921509591e+05
"in" (1.000000000000000e+00 0.000000000000000e+00)
"out" (1.410580083923333e-08 -1.187678434605079e-04)
"freq" 5.011872336272677e+05
"in" (1.000000000000000e+00 0.000000000000000e+00)
"out" (1.120463591250700e-08 -1.058519522113935e-04)
"freq" 5.623413251903439e+05
"in" (1.000000000000000e+00 0.000000000000000e+00)
"out" (8.900158685620186e-09 -9.434065192909874e-05)
"freq" 6.309573444801874e+05
"in" (1.000000000000000e+00 0.000000000000000e+00)
"out" (7.069647350455738e-09 -8.408119468987000e-05)
"freq" 7.079457843841313e+05
"in" (1.000000000000000e+00 0.000000000000000e+00)
"out" (5.615620508175959e-09 -7.493744375571378e-05)
"freq" 7.943282347242740e+05
"in" (1.000000000000000e+00 0.000000000000000e+00)
"out" (4.460645930292818e-09 -6.678806712576324e-05)
"freq" 8.912509381337371e+05
"in" (1.000000000000000e+00 0.000000000000000e+00)
"out" (3.543217010790194e-09 -5.952492753658594e-05)
"freq" 1.000000000000000e+06
"in" (1.000000000000000e+00 0.000000000000000e+00)
"out" (2.814477315476989e-09 -5.305164754798579e-05)
END
