HEADER
"PSFversion" "1.00"
"simulator" "spectre"
"version" "23.1.0.242.isr1"
"date" "5:46:18 PM, Tue Apr 15, 2025"
"design" "#RC Low-Pass Filter"
"analysis type" "tran"
"analysis name" "tran1"
"analysis description" "Transient Analysis `tran1': time = (0 s -> 5 ms)"
"xVecSorted" "ascending"
"tolerance.relative" 1.000000000000000e-03
"start" 0.000000000000000e+00
"outputstart" 0.000000000000000e+00
"stop" 5.000000000000000e-03
"step" 5.000000000000000e-06
"istep" 1.000000000000000e-03
"maxstep" 1.000000000000000e-04
"ic" "all"
"useprevic" "no"
"skipdc" "no"
"reltol" 1.000000000000000e-03
"abstol(V)" 1.000000000000000e-06
"abstol(I)" 1.000000000000000e-12
"temp" 2.700000000000000e+01
"tnom" 2.700000000000000e+01
"tempeffects" "all"
"errpreset" "moderate"
"method" "traponly"
"lteratio" 3.500000000000000e+00
"relref" "sigglobal"
"cmin" 0.000000000000000e+00
"gmin" 1.000000000000000e-12
TYPE
"sweep" FLOAT DOUBLE PROP(
"key" "sweep"
)
"LogicV" FLOAT DOUBLE PROP(
"key" "node"
)
"V" FLOAT DOUBLE PROP(
"units" "V"
"key" "node"
"tolerance" 1.000000000000000e-06
)
"I" FLOAT DOUBLE PROP(
"units" "A"
"key" "branch"
"tolerance" 1.000000000000000e-12
)
"MMF" FLOAT DOUBLE PROP(
"units" "A*turn"
"key" "node"
"tolerance" 1.000000000000000e-12
)
"Wb" FLOAT DOUBLE PROP(
"units" "Wb"
"key" "node"
"tolerance" 1.000000000000000e-09
)
"Temp" FLOAT DOUBLE PROP(
"units" "C"
"key" "node"
"tolerance" 1.000000000000000e-04
)
"Pwr" FLOAT DOUBLE PROP(
"units" "W"
"key" "node"
"tolerance" 1.000000000000000e-09
)
"U" FLOAT DOUBLE PROP(
"units" ""
"key" "node"
"tolerance" 1.000000000000000e-06
)
"V/Sec" FLOAT DOUBLE PROP(
"units" "V/s"
"key" "node"
"tolerance" 9.999999999999999e-05
)
"I/Sec" FLOAT DOUBLE PROP(
"units" "A/s"
"key" "node"
"tolerance" 1.000000000000000e-06
)
"1/Sec" FLOAT DOUBLE PROP(
"units" "1/s"
"key" "node"
"tolerance" 9.999999999999999e-05
)
"HOD" FLOAT DOUBLE PROP(
"units" ""
"key" "node"
"tolerance" 1.000000000000000e-02
)
"Q" FLOAT DOUBLE PROP(
"units" "Coul"
"key" "node"
"tolerance" 1.000000000000000e-15
)
SWEEP
"time" "sweep" PROP(
"sweep_direction" 0
"units" "s"
"plot" 0
"grid" 1
)
TRACE
"in" "V"
"out" "V"
VALUE
"time" 0.000000000000000e+00
"in" 1.000000000000000e+00
"out" 1.000000000000000e+00
"time" 5.000000000000000e-06
"in" 1.031410759078128e+00
"out" 1.000156272433224e+00
"time" 1.500000000000000e-05
"in" 1.094108313318514e+00
"out" 1.001086490659812e+00
"time" 3.500000000000001e-05
"in" 1.218143241396543e+00
"out" 1.004156575544915e+00
"time" 7.024622811894858e-05
"in" 1.427178636580678e+00
"out" 1.015188240702396e+00
"time" 1.305544180619022e-04
"in" 1.731348827301327e+00
"out" 1.048210845799864e+00
"time" 2.138877513952355e-04
"in" 1.974368457016401e+00
"out" 1.112582669508584e+00
"time" 2.972210847285689e-04
"in" 1.956306845543571e+00
"out" 1.180803068050296e+00
"time" 3.805544180619022e-04
"in" 1.682003587090988e+00
"out" 1.231871239911654e+00
"time" 4.638877513952355e-04
"in" 1.224958018242245e+00
"out" 1.249600004932051e+00
"time" 5.472210847285689e-04
"in" 7.076351300745867e-01
"out" 1.226935730470160e+00
"time" 6.305544180619022e-04
"in" 2.686511726986731e-01
"out" 1.167832324143478e+00
"time" 7.138877513952356e-04
"in" 2.563154298359893e-02
"out" 1.086177046839290e+00
"time" 7.972210847285690e-04
"in" 4.369315445642896e-02
"out" 1.002055870989748e+00
"time" 8.805544180619023e-04
"in" 3.179964129090129e-01
"out" 9.363589840051856e-01
"time" 9.638877513952357e-04
"in" 7.750419817577562e-01
"out" 9.051718010714416e-01
"time" 1.047221084728569e-03
"in" 1.292364869925414e+00
"out" 9.154543310530531e-01
"time" 1.130554418061902e-03
"in" 1.731348827301327e+00
"out" 9.631665324578784e-01
"time" 1.213887751395236e-03
"in" 1.974368457016401e+00
"out" 1.034341901233957e+00
"time" 1.297221084728569e-03
"in" 1.956306845543572e+00
"out" 1.108821561237639e+00
"time" 1.380554418061902e-03
"in" 1.682003587090988e+00
"out" 1.165648253644010e+00
"time" 1.463887751395235e-03
"in" 1.224958018242246e+00
"out" 1.188674857565819e+00
"time" 1.547221084728569e-03
"in" 7.076351300745882e-01
"out" 1.170884594893227e+00
"time" 1.630554418061902e-03
"in" 2.686511726986748e-01
"out" 1.116265279412699e+00
"time" 1.713887751395235e-03
"in" 2.563154298359971e-02
"out" 1.038735365686974e+00
"time" 1.797221084728568e-03
"in" 4.369315445642763e-02
"out" 9.584095243296172e-01
"time" 1.880554418061902e-03
"in" 3.179964129090108e-01
"out" 8.962043450778654e-01
"time" 1.963887751395235e-03
"in" 7.750419817577525e-01
"out" 8.682295332583067e-01
"time" 2.047221084728568e-03
"in" 1.292364869925412e+00
"out" 8.814674446649686e-01
"time" 2.130554418061902e-03
"in" 1.731348827301324e+00
"out" 9.318985969808404e-01
"time" 2.213887751395235e-03
"in" 1.974368457016400e+00
"out" 1.005575400595082e+00
"time" 2.297221084728568e-03
"in" 1.956306845543573e+00
"out" 1.082356380649875e+00
"time" 2.380554418061902e-03
"in" 1.682003587090991e+00
"out" 1.141300287503267e+00
"time" 2.463887751395235e-03
"in" 1.224958018242251e+00
"out" 1.166274728716335e+00
"time" 2.547221084728568e-03
"in" 7.076351300745901e-01
"out" 1.150276476351702e+00
"time" 2.630554418061901e-03
"in" 2.686511726986787e-01
"out" 1.097305810354497e+00
"time" 2.713887751395235e-03
"in" 2.563154298360015e-02
"out" 1.021292654153428e+00
"time" 2.797221084728568e-03
"in" 4.369315445642596e-02
"out" 9.423622297187553e-01
"time" 2.880554418061901e-03
"in" 3.179964129090080e-01
"out" 8.814408340358723e-01
"time" 2.963887751395234e-03
"in" 7.750419817577453e-01
"out" 8.546471030996726e-01
"time" 3.047221084728568e-03
"in" 1.292364869925406e+00
"out" 8.689716089190249e-01
"time" 3.130554418061901e-03
"in" 1.731348827301319e+00
"out" 9.204024280945720e-01
"time" 3.213887751395234e-03
"in" 1.974368457016399e+00
"out" 9.949989252197148e-01
"time" 3.297221084728567e-03
"in" 1.956306845543575e+00
"out" 1.072626023304536e+00
"time" 3.380554418061901e-03
"in" 1.682003587090995e+00
"out" 1.132348358745556e+00
"time" 3.463887751395234e-03
"in" 1.224958018242255e+00
"out" 1.158038954259242e+00
"time" 3.547221084728567e-03
"in" 7.076351300745971e-01
"out" 1.142699563851177e+00
"time" 3.630554418061900e-03
"in" 2.686511726986812e-01
"out" 1.090335050854014e+00
"time" 3.713887751395234e-03
"in" 2.563154298360182e-02
"out" 1.014879555412984e+00
"time" 3.797221084728567e-03
"in" 4.369315445642485e-02
"out" 9.364621788775465e-01
"time" 3.880554418061900e-03
"in" 3.179964129090026e-01
"out" 8.760127872619600e-01
"time" 3.963887751395233e-03
"in" 7.750419817577416e-01
"out" 8.496533000676729e-01
"time" 4.047221084728567e-03
"in" 1.292364869925399e+00
"out" 8.643773101295846e-01
"time" 4.130554418061901e-03
"in" 1.731348827301319e+00
"out" 9.161756732082869e-01
"time" 4.213887751395235e-03
"in" 1.974368457016400e+00
"out" 9.911103107243331e-01
"time" 4.297221084728568e-03
"in" 1.956306845543572e+00
"out" 1.069048497968786e+00
"time" 4.380554418061902e-03
"in" 1.682003587090992e+00
"out" 1.129057035436666e+00
"time" 4.463887751395236e-03
"in" 1.224958018242245e+00
"out" 1.155010936815062e+00
"time" 4.547221084728569e-03
"in" 7.076351300745838e-01
"out" 1.139913787802530e+00
"time" 4.630554418061903e-03
"in" 2.686511726986692e-01
"out" 1.087772136889258e+00
"time" 4.713887751395237e-03
"in" 2.563154298359793e-02
"out" 1.012521674565407e+00
"time" 4.797221084728570e-03
"in" 4.369315445643096e-02
"out" 9.342929284977755e-01
"time" 4.880554418061904e-03
"in" 3.179964129090206e-01
"out" 8.740170769125712e-01
"time" 4.940277209030952e-03
"in" 6.334954483920670e-01
"out" 8.509208966678310e-01
"time" 5.000000000000000e-03
"in" 9.999999999999988e-01
"out" 8.489391569451546e-01
END
